Time [s],Value,Parity Error,Framing Error

TX1
01 A4 80 03 00 08 02 00 01 FF 00 00 01 1A 00 FB 19
1.0072674375,	'1' (0x01),,
1.007527875,  '164' (0xA4),,
1.0077883125, '128' (0x80),,
1.00804875,		'3' (0x03),,
1.0083091875,	'0' (0x00),,
1.008569625,	'8' (0x08),,
1.0088300625,	'2' (0x02),,
1.0090905,		'0' (0x00),,
1.0093509375,	'1' (0x01),,
1.009611375,  '255' (0xFF),,
1.0098718125,	'0' (0x00),,
1.01013225,		'0' (0x00),,
1.0103926875,	'1' (0x01),,
1.0106531875,  '26' (0x1A),,
1.010913625,	'0' (0x00),,
1.0111740625, '251' (0xFB),,
1.0114345,	   '25' (0x19),,

RX1
01 A4 80 00 03 28 02 03 01 FF 00 00 01 1A 20 46 6C 61 74 50 61 63 6B 32 20 53 79 73 74 65 6D 00 00 00 00 00 00 00 00 00 00 00 00 00 00 00 00 73 55
1.0482385,		'1' (0x01),,
1.048525,	  '164' (0xA4),,
1.0488116875, '128' (0x80),,
1.0490984375,	'0' (0x00),,
1.049385125,	'3' (0x03),,
1.049671875,	 (  (0x28),,
1.0499585625,	'2' (0x02),,
1.05024525,		'3' (0x03),,
1.050532,		'1' (0x01),,
1.0508186875, '255' (0xFF),,
1.0511054375,	'0' (0x00),,
1.051392125,	'0' (0x00),,
1.051678875,	'1' (0x01),,
1.0519655625,  '26' (0x1A),,
1.0522523125,	' ' (0x20),,
1.052539,		 F  (0x46),,	(Model)
1.05282575,		 l  (0x6C),,
1.0531124375,	 a  (0x61),,
1.053399125,	 t  (0x74),,
1.053685875,	 P  (0x50),,
1.0539725625,	 a  (0x61),,
1.0542593125,	 c  (0x63),,
1.054546,		 k  (0x6B),,
1.05483275,		 2  (0x32),,
1.0551194375,	' ' (0x20),,
1.0554061875,	 S  (0x53),,
1.055692875,	 y  (0x79),,
1.055979625,	 s  (0x73),,
1.0562663125,	 t  (0x74),,
1.0565530625,	 e  (0x65),,
1.05683975,		 m  (0x6D),,
1.0571265,		'0' (0x00),,
1.0574131875,	'0' (0x00),,
1.0576999375,	'0' (0x00),,
1.057986625,	'0' (0x00),,
1.0582733125,	'0' (0x00),,
1.0585600625,	'0' (0x00),,
1.0588468125,	'0' (0x00),,
1.0591335,		'0' (0x00),,
1.0594201875,	'0' (0x00),,
1.0597069375,	'0' (0x00),,
1.059993625,	'0' (0x00),,
1.060280375,	'0' (0x00),,
1.0605670625,	'0' (0x00),,
1.0608538125,	'0' (0x00),,
1.0611405,		'0' (0x00),,
1.06142725,		'0' (0x00),,
1.0617139375,	 s  (0x73),,
1.0620006875,	 U  (0x55),,
*************************************************************************

TX3
01 A4 80 03 00 08 02 00 01 FF 00 00 01 1B 00 6B 18
1.4121224375,	'1' (0x01),,
1.412382875,  '164' (0xA4),,
1.4126433125, '128' (0x80),,
1.41290375,		'3' (0x03),,
1.4131641875,	'0' (0x00),,
1.413424625,	'8' (0x08),,
1.4136850625,	'2' (0x02),,
1.4139455,		'0' (0x00),,
1.4142059375,	'1' (0x01),,
1.4144664375, '255' (0xFF),,
1.414726875,	'0' (0x00),,
1.4149873125,	'0' (0x00),,
1.41524775,		'1' (0x01),,
1.4155081875,  '27' (0x1B),,
1.415768625,	'0' (0x00),,
1.4160290625,    k  (0x6B),,
1.4162895,	   '24' (0x18),,

RX3
01 A4 80 00 03 28 02 03 01 FF 00 00 01 1B 20 00 00 00 00 00 00 00 00 00 00 00 00 00 00 00 00 00 00 00 00 00 00 00 00 00 00 00 00 00 00 00 00 3A EC
1.441822125,	'1' (0x01),,
1.4421086875, '164' (0xA4),,
1.4423954375, '128' (0x80),,
1.442682125,	'0' (0x00),,
1.4429688125,	'3' (0x03),,
1.4432555625,	 (  (0x28),,
1.44354225,		'2' (0x02),,
1.443829,		'3' (0x03),,
1.44411575,		'1' (0x01),,
1.4444024375, '255' (0xFF),,
1.4446891875,	'0' (0x00),,
1.444975875,	'0' (0x00),,
1.4452625625,	'1' (0x01),,
1.4455493125,  '27' (0x1B),,
1.445836,		' ' (0x20),,
1.44612275,		'0' (0x00),,	(Company)
1.4464094375,	'0' (0x00),,
1.4466961875,	'0' (0x00),,
1.446982875,	'0' (0x00),,
1.447269625,	'0' (0x00),,
1.4475563125,	'0' (0x00),,
1.447843,		'0' (0x00),,
1.44812975,		'0' (0x00),,
1.4484164375,	'0' (0x00),,
1.4487031875,	'0' (0x00),,
1.448989875,	'0' (0x00),,
1.449276625,	'0' (0x00),,
1.4495633125,	'0' (0x00),,
1.4498500625,	'0' (0x00),,
1.45013675,		'0' (0x00),,
1.4504235,		'0' (0x00),,
1.4507101875,	'0' (0x00),,
1.4509969375,	'0' (0x00),,
1.451283625,	'0' (0x00),,
1.451570375,	'0' (0x00),,
1.4518570625,	'0' (0x00),,
1.45214375,		'0' (0x00),,
1.4524305,		'0' (0x00),,
1.45271725,		'0' (0x00),,
1.4530039375,	'0' (0x00),,
1.453290625,	'0' (0x00),,
1.453577375,	'0' (0x00),,
1.4538640625,	'0' (0x00),,
1.4541508125,	'0' (0x00),,
1.4544375,		'0' (0x00),,
1.45472425,		'0' (0x00),,
1.4550109375,	'0' (0x00),,
1.4552976875,	 :  (0x3A),,
1.455584375,  '236' (0xEC),,
*************************************************************************

TX5
01 A4 80 03 00 08 02 00 01 FF 00 00 01 1C 00 5B 1A
1.8440633125,	'1' (0x01),,
1.84432375,   '164' (0xA4),,
1.8445841875, '128' (0x80),,
1.844844625,	'3' (0x03),,
1.8451050625,	'0' (0x00),,
1.8453655,		'8' (0x08),,
1.8456259375,	'2' (0x02),,
1.845886375,	'0' (0x00),,
1.8461468125,	'1' (0x01),,
1.84640725,   '255' (0xFF),,
1.8466676875,	'0' (0x00),,
1.846928125,	'0' (0x00),,
1.8471885625,	'1' (0x01),,
1.847449,      '28' (0x1C),,
1.8477094375,	'0' (0x00),,
1.847969875,	 [  (0x5B),,
1.8482303125,  '26' (0x1A),,

RX5
01 A4 80 00 03 28 02 03 01 FF 00 00 01 1C 20 00 00 00 00 00 00 00 00 00 00 00 00 00 00 00 00 00 00 00 00 00 00 00 00 00 00 00 00 00 00 00 00 39 ED
1.8588644375,	'1' (0x01),,
1.8591510625, '164' (0xA4),,
1.85943775,	  '128' (0x80),,
1.8597245,		'0' (0x00),,
1.8600111875,	'3' (0x03),,
1.8602979375,	 (  (0x28),,
1.860584625,	'2' (0x02),,
1.8608713125,	'3' (0x03),,
1.8611580625,	'1' (0x01),,
1.86144475,   '255' (0xFF),,
1.8617315625,	'0' (0x00),,
1.86201825,		'0' (0x00),,
1.8623049375,	'1' (0x01),,
1.862591625,   '28' (0x1C),,
1.862878375,	' ' (0x20),,
1.8631650625,	'0' (0x00),,	(Site)
1.8634518125,	'0' (0x00),,
1.8637385,		'0' (0x00),,
1.86402525,		'0' (0x00),,
1.8643119375,	'0' (0x00),,
1.8645986875,	'0' (0x00),,
1.864885375,	'0' (0x00),,
1.865172125,	'0' (0x00),,
1.8654588125,	'0' (0x00),,
1.8657455,		'0' (0x00),,
1.86603225,		'0' (0x00),,
1.866319,		'0' (0x00),,
1.8666056875,	'0' (0x00),,
1.866892375,	'0' (0x00),,
1.867179125,	'0' (0x00),,
1.8674658125,	'0' (0x00),,
1.8677525625,	'0' (0x00),,
1.86803925,		'0' (0x00),,
1.868326,		'0' (0x00),,
1.8686126875,	'0' (0x00),,
1.8688994375,	'0' (0x00),,
1.869186125,	'0' (0x00),,
1.8694728125,	'0' (0x00),,
1.8697595625,	'0' (0x00),,
1.8700463125,	'0' (0x00),,
1.870333,		'0' (0x00),,
1.8706196875,	'0' (0x00),,
1.8709064375,	'0' (0x00),,
1.871193125,	'0' (0x00),,
1.871479875,	'0' (0x00),,
1.8717665625,	'0' (0x00),,
1.8720533125,	'0' (0x00),,
1.87234,		 9  (0x39),,
1.87262675,	  '237' (0xED),,
*************************************************************************

TX6
01 A4 80 03 00 08 02 00 01 FF 00 00 01 1D 00 CB 1B
1.9287325625,	'1' (0x01),,
1.928993,	  '164' (0xA4),,
1.9292534375, '128' (0x80),,
1.929513875,	'3' (0x03),,
1.9297743125,	'0' (0x00),,
1.93003475,		'8' (0x08),,
1.9302951875,	'2' (0x02),,
1.930555625,	'0' (0x00),,
1.9308160625,	'1' (0x01),,
1.9310765,	  '255' (0xFF),,
1.9313369375,	'0' (0x00),,
1.931597375,	'0' (0x00),,
1.9318578125,	'1' (0x01),,
1.93211825,	   '29' (0x1D),,
1.9323786875,	'0' (0x00),,
1.9326391875, '203' (0xCB),,
1.932899625,   '27' (0x1B),,

RX6
01 A4 80 00 03 18 02 03 01 FF 00 00 01 1D 10 31 35 33 34 30 39 30 30 31 36 33 32 00 00 00 00 44 8A
1.9482158125,	'1' (0x01),,
1.948502375,  '164' (0xA4),,
1.9487890625, '128' (0x80),,
1.9490758125,	'0' (0x00),,
1.9493625,		'3' (0x03),,
1.94964925,	   '24' (0x18),,
1.9499359375,	'2' (0x02),,
1.9502226875,	'3' (0x03),,
1.950509375,	'1' (0x01),,
1.950796125,  '255' (0xFF),,
1.951082875,	'0' (0x00),,
1.9513695625,	'0' (0x00),,
1.95165625,		'1' (0x01),,
1.951943,      '29' (0x1D),,
1.9522296875,  '16' (0x10),,
1.952516375,	 1  (0x31),,	(Serial Number)
1.952803125,	 5  (0x35),,
1.9530898125,	 3  (0x33),,
1.9533765625,	 4  (0x34),,
1.95366325,		 0  (0x30),,
1.95395,		 9  (0x39),,
1.9542366875,	 0  (0x30),,
1.9545234375,	 0  (0x30),,
1.954810125,	 1  (0x31),,
1.955096875,	 6  (0x36),,
1.9553835625,	 3  (0x33),,
1.95567025,	 	 2  (0x32),,
1.955957,		'0' (0x00),,
1.95624375,		'0' (0x00),,
1.9565304375,	'0' (0x00),,
1.956817125,	'0' (0x00),,
1.957103875,	 D  (0x44),,
1.9573905625, '138' (0x8A),,
*************************************************************************

TX8
01 A4 80 03 00 08 02 00 01 FF 00 00 01 1E 00 3B 1B
2.0051458125,	'1' (0x01),,
2.00540625,   '164' (0xA4),,
2.00566675,	  '128' (0x80),,
2.0059271875,	'3' (0x03),,
2.006187625,	'0' (0x00),,
2.0064480625,	'8' (0x08),,
2.0067085,		'2' (0x02),,
2.0069689375,	'0' (0x00),,
2.007229375,	'1' (0x01),,
2.0074898125, '255' (0xFF),,
2.00775025,		'0' (0x00),,
2.0080106875,	'0' (0x00),,
2.008271125,	'1' (0x01),,
2.0085315625,  '30' (0x1E),,
2.008792,		'0' (0x00),,
2.0090524375,	 ;  (0x3B),,
2.009312875,   '27' (0x1B),,

RX8
01 A4 80 00 03 28 02 03 01 FF 00 00 01 1E 20 00 00 00 00 00 00 00 00 00 00 00 00 00 00 00 00 00 00 00 00 00 00 00 00 00 00 00 00 00 00 00 00 A3 EC
2.0325886875,	'1' (0x01),,
2.03287525,   '164' (0xA4),,
2.033162,	  '128' (0x80),,
2.0334486875,	'0' (0x00),,
2.033735375,	'3' (0x03),,
2.034022125,	 (  (0x28),,
2.0343088125,	'2' (0x02),,
2.0345955625,	'3' (0x03),,
2.03488225,		'1' (0x01),,
2.035169,	  '255' (0xFF),,
2.03545575,		'0' (0x00),,
2.0357424375,	'0' (0x00),,
2.036029125,	'1' (0x01),,
2.036315875,   '30' (0x1E),,
2.0366025625,	' ' (0x20),,
2.03688925,		'0' (0x00),,	(Message 1)
2.037176,		'0' (0x00),,
2.03746275,		'0' (0x00),,
2.0377494375,	'0' (0x00),,
2.038036125,	'0' (0x00),,
2.038322875,	'0' (0x00),,
2.0386095625,	'0' (0x00),,
2.0388963125,	'0' (0x00),,
2.039183,		'0' (0x00),,
2.03946975,		'0' (0x00),,
2.0397564375,	'0' (0x00),,
2.0400431875,	'0' (0x00),,
2.040329875,	'0' (0x00),,
2.040616625,	'0' (0x00),,
2.0409033125,	'0' (0x00),,
2.0411900625,	'0' (0x00),,
2.04147675,		'0' (0x00),,
2.0417634375,	'0' (0x00),,
2.0420501875,	'0' (0x00),,
2.042336875,	'0' (0x00),,
2.042623625,	'0' (0x00),,
2.0429103125,	'0' (0x00),,
2.0431970625,	'0' (0x00),,
2.04348375,		'0' (0x00),,
2.0437705,		'0' (0x00),,
2.0440571875,	'0' (0x00),,
2.0443439375,	'0' (0x00),,
2.044630625,	'0' (0x00),,
2.044917375,	'0' (0x00),,
2.0452040625,	'0' (0x00),,
2.04549075,		'0' (0x00),,
2.0457775,		'0' (0x00),,
2.0460641875, '163' (0xA3),,
2.0463509375, '236' (0xEC),,
*************************************************************************

TX9
01 A4 80 03 00 08 02 00 01 FF 00 00 01 1F 00 AB 1A
2.0660108125,	'1' (0x01),,
2.06627125,   '164' (0xA4),,
2.0665316875, '128' (0x80),,
2.066792125,	'3' (0x03),,
2.0670525625,	'0' (0x00),,
2.067313,		'8' (0x08),,
2.0675734375,	'2' (0x02),,
2.0678339375,	'0' (0x00),,
2.068094375,	'1' (0x01),,
2.0683548125, '255' (0xFF),,
2.06861525,	  	'0' (0x00),,
2.0688756875, 	'0' (0x00),,
2.069136125,	'1' (0x01),,
2.0693965625,  '31' (0x1F),,
2.069657,		'0' (0x00),,
2.0699174375, '171' (0xAB),,
2.070177875,   '26' (0x1A),,

RX9
01 A4 80 00 03 28 02 03 01 FF 00 00 01 1F 20 00 00 00 00 00 00 00 00 00 00 00 00 00 00 00 00 00 00 00 00 00 00 00 00 00 00 00 00 00 00 00 00 4E ED
2.1238166875,	'1' (0x01),,
2.12410325,	  '164' (0xA4),,
2.12439,	  '128' (0x80),,
2.1246766875,	'0' (0x00),,
2.1249634375,	'3' (0x03),,
2.125250125,	 (  (0x28),,
2.125536875,	'2' (0x02),,
2.1258235625,	'3' (0x03),,
2.1261103125,	'1' (0x01),,
2.126397,	  '255' (0xFF),,
2.12668375,		'0' (0x00),,
2.1269704375,	'0' (0x00),,
2.127257125,	'1' (0x01),,
2.127543875,   '31' (0x1F),,
2.1278305625,	' ' (0x20),,
2.1281173125,	'0' (0x00),,	(Message 2)
2.128404,		'0' (0x00),,
2.12869075,		'0' (0x00),,
2.1289774375,	'0' (0x00),,
2.1292641875,	'0' (0x00),,
2.129550875,	'0' (0x00),,
2.129837625,	'0' (0x00),,
2.1301243125,	'0' (0x00),,
2.130411,		'0' (0x00),,
2.13069775,		'0' (0x00),,
2.1309845,		'0' (0x00),,
2.1312711875,	'0' (0x00),,
2.131557875,	'0' (0x00),,
2.131844625,	'0' (0x00),,
2.1321313125,	'0' (0x00),,
2.1324180625,	'0' (0x00),,
2.13270475,		'0' (0x00),,
2.1329915,		'0' (0x00),,
2.1332781875,	'0' (0x00),,
2.1335649375,	'0' (0x00),,
2.133851625,	'0' (0x00),,
2.134138375,	'0' (0x00),,
2.1344250625,	'0' (0x00),,
2.1347118125,	'0' (0x00),,
2.1349985,		'0' (0x00),,
2.1352851875,	'0' (0x00),,
2.1355719375,	'0' (0x00),,
2.135858625,	'0' (0x00),,
2.136145375,	'0' (0x00),,
2.1364320625,	'0' (0x00),,
2.1367188125,	'0' (0x00),,
2.1370055,		'0' (0x00),,
2.13729225,		 N  (0x4E),,
2.1375789375, '237' (0xED),,
*************************************************************************


TX18
01 A4 80 03 00 08 02 00 01 FF 00 00 01 20 00 5B 0B
2.4621410625,	'1' (0x01),,
2.4624015,    '164' (0xA4),,
2.4626619375, '128' (0x80),,
2.462922375,	'3' (0x03),,
2.4631828125,	'0' (0x00),,
2.46344325,		'8' (0x08),,
2.46370375,		'2' (0x02),,
2.4639641875,	'0' (0x00),,
2.464224625,	'1' (0x01),,
2.4644850625, '255' (0xFF),,
2.4647455,		'0' (0x00),,
2.4650059375,	'0' (0x00),,
2.465266375,	'1' (0x01),,
2.4655268125,	' ' (0x20),,
2.46578725,		'0' (0x00),,
2.4660476875,	 [  (0x5B),,
2.466308125,   '11' (0x0B),,

RX18
01 A4 80 00 03 18 02 03 01 FF 00 00 01 20 10 00 30 30 30 30 30 30 30 30 30 30 30 30 30 30 30 5C E1
2.4837503125,	'1' (0x01),,
2.484036875,  '164' (0xA4),,
2.484323625,  '128' (0x80),,
2.4846103125,	'0' (0x00),,
2.4848970625,	'3' (0x03),,
2.48518375,    '24' (0x18),,
2.4854705,		'2' (0x02),,
2.4857571875,	'3' (0x03),,
2.486043875,	'1' (0x01),,
2.486330625,  '255' (0xFF),,
2.486617375,	'0' (0x00),,
2.4869040625,	'0' (0x00),,
2.48719075,		'1' (0x01),,
2.4874775,		' ' (0x20),,
2.4877641875,  '16' (0x10),,
2.4880509375,	'0' (0x00),,	(Responsible)
2.488337625,	'0' (0x30),,
2.488624375,	'0' (0x30),,
2.4889110625,	'0' (0x30),,
2.48919775,		'0' (0x30),,
2.4894845,		'0' (0x30),,
2.4897711875,	'0' (0x30),,
2.4900579375,	'0' (0x30),,
2.490344625,	'0' (0x30),,
2.490631375,	'0' (0x30),,
2.4909180625,	'0' (0x30),,
2.4912048125,	'0' (0x30),,
2.4914915,		'0' (0x30),,
2.49177825,		'0' (0x30),,
2.4920649375,	'0' (0x30),,
2.4923516875,	'0' (0x30),,
2.492638375,  	'\' (0x5C),,
2.492925125,	 รก  (0xE1),,
*************************************************************************