Time [s],Value,Parity Error,Framing Error

TX1
01 A4 80 03 00 08 02 00 06 01 01 01 0C 04 00 BA DE
1.8825844375,'1' (0x01),,
1.882844875,'164' (0xA4),,
1.8831053125,'128' (0x80),,
1.88336575,'3' (0x03),,
1.8836261875,'0' (0x00),,
1.883886625,'8' (0x08),,
1.8841470625,'2' (0x02),,
1.8844075,'0' (0x00),,
1.8846679375,'6' (0x06),,
1.884928375,'1' (0x01),,
1.885188875,'1' (0x01),,
1.8854493125,'1' (0x01),,
1.88570975,'12' (0x0C),,
1.8859701875,'4' (0x04),,
1.886230625,'0' (0x00),,
1.8864910625,'186' (0xBA),,
1.8867515,'222' (0xDE),,

RX1
1.950917625,'1' (0x01),,
1.9512040625,'164' (0xA4),,
1.9514908125,'128' (0x80),,
1.9517775625,'0' (0x00),,
1.95206425,'3' (0x03),,
1.9523509375,'12' (0x0C),,
1.9526376875,'2' (0x02),,
1.952924375,'3' (0x03),,
1.953211125,'6' (0x06),,
1.9534978125,'1' (0x01),,
1.9537845625,'1' (0x01),,
1.95407125,'1' (0x01),,
1.954358,'12' (0x0C),,
1.9546446875,'4' (0x04),,
1.9549314375,'4' (0x04),,
1.955218125,'222' (0xDE),,
1.955504875,'7' (0x07),,
1.9557915625,'2' (0x02),,
1.9560783125,'5' (0x05),,
1.956365,'183' (0xB7),,
1.95665175,'162' (0xA2),,
**********************************************************************


TX2
01 A4 80 03 00 08 02 00 05 FF FF 00 01 08 00 8F 44
2.157089375,'1' (0x01),,
2.1573498125,'164' (0xA4),,
2.15761025,'128' (0x80),,
2.1578706875,'3' (0x03),,
2.158131125,'0' (0x00),,
2.1583915625,'8' (0x08),,
2.158652,'2' (0x02),,
2.1589124375,'0' (0x00),,
2.159172875,'5' (0x05),,
2.1594333125,'255' (0xFF),,
2.15969375,'255' (0xFF),,
2.1599541875,'0' (0x00),,
2.160214625,'1' (0x01),,
2.160475125,'8' (0x08),,
2.1607355625,'0' (0x00),,
2.160996,'143' (0x8F),,
2.1612564375,D (0x44),,

RX2
01 A4 80 00 03 09 02 03 05 FF FF 00 01 08 01 03 69 DF
2.17742425,'1' (0x01),,
2.17771075,'164' (0xA4),,
2.1779975,'128' (0x80),,
2.1782841875,'0' (0x00),,
2.1785709375,'3' (0x03),,
2.178857625,\t (0x09),,
2.179144375,'2' (0x02),,
2.1794310625,'3' (0x03),,
2.17971775,'5' (0x05),,
2.1800045,'255' (0xFF),,
2.18029125,'255' (0xFF),,
2.1805779375,'0' (0x00),,
2.1808646875,'1' (0x01),,
2.181151375,'8' (0x08),,
2.1814380625,'1' (0x01),,
2.1817248125,'3' (0x03),,		(No of modules detected)
2.1820115625,i (0x69),,
2.18229825,'223' (0xDF),,
**********************************************************************


TX3
01 A4 80 03 00 08 02 00 01 FF 00 00 01 12 00 3B 1E
2.197041,'1' (0x01),,
2.1973015,'164' (0xA4),,
2.1975619375,'128' (0x80),,
2.197822375,'3' (0x03),,
2.1980828125,'0' (0x00),,
2.19834325,'8' (0x08),,
2.1986036875,'2' (0x02),,
2.198864125,'0' (0x00),,
2.1991245625,'1' (0x01),,
2.199385,'255' (0xFF),,
2.1996454375,'0' (0x00),,
2.199905875,'0' (0x00),,
2.2001663125,'1' (0x01),,
2.20042675,'18' (0x12),,
2.2006871875,'0' (0x00),,
2.200947625,; (0x3B),,
2.2012080625,'30' (0x1E),,

RX3
01 A4 80 00 03 09 02 03 01 FF 00 00 01 12 01 00 53 AB
2.219571625,'1' (0x01),,
2.2198581875,'164' (0xA4),,
2.2201449375,'128' (0x80),,
2.220431625,'0' (0x00),,
2.220718375,'3' (0x03),,
2.2210050625,\t (0x09),,
2.2212918125,'2' (0x02),,
2.2215785,'3' (0x03),,
2.22186525,'1' (0x01),,
2.2221519375,'255' (0xFF),,
2.2224386875,'0' (0x00),,
2.222725375,'0' (0x00),,
2.2230120625,'1' (0x01),,
2.2232988125,'18' (0x12),,
2.2235855,'1' (0x01),,
2.22387225,'0' (0x00),,
2.224159,S (0x53),,
2.2244456875,'171' (0xAB),,
**********************************************************************


TX4
01 A4 80 03 00 08 02 00 05 01 FF FF 0A 02 00 27 16
2.3173648125,'1' (0x01),,
2.31762525,'164' (0xA4),,
2.3178856875,'128' (0x80),,
2.318146125,'3' (0x03),,
2.3184065625,'0' (0x00),,
2.318667,'8' (0x08),,
2.3189274375,'2' (0x02),,
2.3191879375,'0' (0x00),,
2.319448375,'5' (0x05),,
2.3197088125,'1' (0x01),,
2.31996925,'255' (0xFF),,
2.3202296875,'255' (0xFF),,
2.320490125,\n (0x0A),,
2.3207505625,'2' (0x02),,
2.321011,'0' (0x00),,
2.3212714375,' (0x27),,
2.321531875,'22' (0x16),,

RX4
01 A4 80 00 03 0E 02 03 05 01 FF FF 0A 02 06 12 13 71 12 75 03 FD 8B
2.3319388125,'1' (0x01),,
2.3322253125,'164' (0xA4),,
2.3325120625,'128' (0x80),,
2.33279875,'0' (0x00),,
2.3330855,'3' (0x03),,
2.3333721875,'14' (0x0E),,
2.3336589375,'2' (0x02),,
2.3339978125,'3' (0x03),,
2.3342845,'5' (0x05),,
2.3345711875,'1' (0x01),,
2.3348579375,'255' (0xFF),,
2.3351446875,'255' (0xFF),,
2.335431375,\n (0x0A),,
2.3357180625,'2' (0x02),,
2.3360048125,'6' (0x06),,
2.3362915,'18' (0x12),,			(ID1: 121371127503)
2.3365781875,'19' (0x13),,
2.3368649375,q (0x71),,
2.3371516875,'18' (0x12),,
2.337438375,u (0x75),,
2.3377250625,'3' (0x03),,
2.3380118125,'253' (0xFD),,
2.3382985625,'139' (0x8B),,
**********************************************************************


TX5
01 A4 80 03 00 08 02 00 05 02 FF FF 0A 02 00 14 16
2.3561705625,'1' (0x01),,
2.356431,'164' (0xA4),,
2.3566914375,'128' (0x80),,
2.356951875,'3' (0x03),,
2.3572123125,'0' (0x00),,
2.35747275,'8' (0x08),,
2.3577331875,'2' (0x02),,
2.357993625,'0' (0x00),,
2.3582540625,'5' (0x05),,
2.3585145,'2' (0x02),,
2.3587749375,'255' (0xFF),,
2.359035375,'255' (0xFF),,
2.3592958125,\n (0x0A),,
2.35955625,'2' (0x02),,
2.35981675,'0' (0x00),,
2.3600771875,'20' (0x14),,
2.360337625,'22' (0x16),,

RX5
01 A4 80 00 03 0E 02 03 05 02 FF FF 0A 02 06 13 48 72 10 40 30 24 1D
2.3718185625,'1' (0x01),,
2.372105125,'164' (0xA4),,
2.3723918125,'128' (0x80),,
2.3726785625,'0' (0x00),,
2.37296525,'3' (0x03),,
2.3732519375,'14' (0x0E),,
2.3735386875,'2' (0x02),,
2.37395575,'3' (0x03),,
2.3742424375,'5' (0x05),,
2.3745291875,'2' (0x02),,
2.374815875,'255' (0xFF),,
2.375102625,'255' (0xFF),,
2.375389375,\n (0x0A),,
2.375676,'2' (0x02),,
2.37596275,'6' (0x06),,
2.3762494375,'19' (0x13),,		(ID2: 134872104030)
2.3765361875,H (0x48),,
2.376822875,r (0x72),,
2.377109625,'16' (0x10),,
2.377396375,@ (0x40),,
2.3776830625,0 (0x30),,
2.37796975,$ (0x24),,
2.3782565,'29' (0x1D),,
**********************************************************************


TX6
01 A4 80 03 00 08 02 00 05 03 FF FF 0A 02 00 C5 17
2.386173375,'1' (0x01),,
2.3864338125,'164' (0xA4),,
2.38669425,'128' (0x80),,
2.3869546875,'3' (0x03),,
2.387215125,'0' (0x00),,
2.3874755625,'8' (0x08),,
2.387736,'2' (0x02),,
2.3879964375,'0' (0x00),,
2.388256875,'5' (0x05),,
2.3885173125,'3' (0x03),,
2.38877775,'255' (0xFF),,
2.3890381875,'255' (0xFF),,
2.389298625,\n (0x0A),,
2.389559125,'2' (0x02),,
2.3898195625,'0' (0x00),,
2.39008,'197' (0xC5),,
2.3903404375,'23' (0x17),,

RX6
01 A4 80 00 03 0E 02 03 05 03 FF FF 0A 02 06 15 18 71 03 70 32 CD 44
2.419961,'1' (0x01),,
2.4202475625,'164' (0xA4),,
2.42053425,'128' (0x80),,
2.420821,'0' (0x00),,
2.4211076875,'3' (0x03),,
2.4213944375,'14' (0x0E),,
2.421681125,'2' (0x02),,
2.4219678125,'3' (0x03),,
2.4222545625,'5' (0x05),,
2.4225413125,'3' (0x03),,
2.422828,'255' (0xFF),,
2.42311475,'255' (0xFF),,
2.4234014375,\n (0x0A),,
2.423688125,'2' (0x02),,
2.423974875,'6' (0x06),,
2.4242615625,'21' (0x15),,
2.4245483125,'24' (0x18),,
2.424835,q (0x71),,
2.42512175,'3' (0x03),,
2.4254084375,p (0x70),,
2.4256951875,2 (0x32),,
2.425981875,'205' (0xCD),,
2.426268625,D (0x44),,
**********************************************************************


TX7
01 A4 80 03 00 08 02 00 05 01 FF FF 01 0D 00 15 62
2.4435485625,'1' (0x01),,
2.443809,'164' (0xA4),,
2.4440694375,'128' (0x80),,
2.444329875,'3' (0x03),,
2.4445903125,'0' (0x00),,
2.44485075,'8' (0x08),,
2.4451111875,'2' (0x02),,
2.445371625,'0' (0x00),,
2.4456320625,'5' (0x05),,
2.4458925,'1' (0x01),,
2.4461529375,'255' (0xFF),,
2.446413375,'255' (0xFF),,
2.4466738125,'1' (0x01),,
2.44693425,\r (0x0D),,
2.4471946875,'0' (0x00),,
2.447455125,'21' (0x15),,
2.447715625,b (0x62),,

RX7
2.4863490625,'1' (0x01),,
2.486635625,'164' (0xA4),,
2.486922375,'128' (0x80),,
2.4872090625,'0' (0x00),,
2.48749575,'3' (0x03),,
2.4877825,\t (0x09),,
2.4880691875,'2' (0x02),,
2.4883559375,'3' (0x03),,
2.488642625,'5' (0x05),,
2.488929375,'1' (0x01),,
2.4892160625,'255' (0xFF),,
2.4895028125,'255' (0xFF),,
2.4899459375,'1' (0x01),,
2.490232625,\r (0x0D),,
2.4905193125,'1' (0x01),,
2.4908060625,'1' (0x01),,
2.4910928125,r (0x72),,
2.4913795,E (0x45),,
**********************************************************************


TX8
01 A4 80 03 00 08 02 00 05 01 07 FF 03 00 00 91 66
2.49620975,'1' (0x01),,
2.4964701875,'164' (0xA4),,
2.496730625,'128' (0x80),,
2.4969910625,'3' (0x03),,
2.4972515,'0' (0x00),,
2.4975119375,'8' (0x08),,
2.497772375,'2' (0x02),,
2.4980328125,'0' (0x00),,
2.49829325,'5' (0x05),,
2.4985536875,'1' (0x01),,
2.498814125,'7' (0x07),,
2.4990745625,'255' (0xFF),,
2.499335,'3' (0x03),,
2.4995954375,'0' (0x00),,
2.499855875,'0' (0x00),,
2.500116375,'145' (0x91),,
2.5003768125,f (0x66),,

RX8
01 A4 80 00 03 0A 02 03 05 01 07 FF 03 00 02 5B 00 F4 7F
2.5154378125,'1' (0x01),,
2.5157244375,'164' (0xA4),,
2.516011125,'128' (0x80),,
2.5162978125,'0' (0x00),,
2.5165845625,'3' (0x03),,
2.5168713125,\n (0x0A),,
2.517158,'2' (0x02),,
2.5174446875,'3' (0x03),,
2.5177314375,'5' (0x05),,
2.518018125,'1' (0x01),,
2.518304875,'7' (0x07),,
2.5185915625,'255' (0xFF),,
2.5188783125,'3' (0x03),,
2.519165,'0' (0x00),,
2.51945175,'2' (0x02),,
2.5197384375,[ (0x5B),,			(Current[A] #1)
2.5200251875,'0' (0x00),,
2.520311875,'244' (0xF4),,
2.520598625,'127' (0x7F),,
**********************************************************************


TX9
01 A4 80 03 00 08 02 00 05 01 06 FF 04 00 00 90 EA
2.53665625,'1' (0x01),,
2.5369166875,'164' (0xA4),,
2.537177125,'128' (0x80),,
2.5374375625,'3' (0x03),,
2.537698,'0' (0x00),,
2.5379584375,'8' (0x08),,
2.538218875,'2' (0x02),,
2.5384793125,'0' (0x00),,
2.53873975,'5' (0x05),,
2.5390001875,'1' (0x01),,
2.539260625,'6' (0x06),,
2.5395210625,'255' (0xFF),,
2.5397815,'4' (0x04),,
2.540042,'0' (0x00),,
2.5403024375,'0' (0x00),,
2.540562875,'144' (0x90),,
2.5408233125,'234' (0xEA),,

RX9
01 A4 80 00 03 0A 02 03 05 01 06 FF 04 00 02 23 00 F4 F8
2.5620424375,'1' (0x01),,
2.562329,'164' (0xA4),,
2.56261575,'128' (0x80),,
2.5629024375,'0' (0x00),,
2.563189125,'3' (0x03),,
2.563475875,\n (0x0A),,
2.5637625625,'2' (0x02),,
2.5640493125,'3' (0x03),,
2.564336,'5' (0x05),,
2.56462275,'1' (0x01),,
2.5649094375,'6' (0x06),,
2.5651961875,'255' (0xFF),,
2.5654829375,'4' (0x04),,
2.565769625,'0' (0x00),,
2.5660563125,'2' (0x02),,
2.5663430625,# (0x23),,			(Temperature #1)
2.56662975,'0' (0x00),,
2.5669165,'244' (0xF4),,
2.5672031875,'248' (0xF8),,
**********************************************************************


TX10
01 A4 80 03 00 08 02 00 05 01 06 FF 39 00 00 5C 7B
2.5761911875,'1' (0x01),,
2.576451625,'164' (0xA4),,
2.5767120625,'128' (0x80),,
2.5769725,'3' (0x03),,
2.5772329375,'0' (0x00),,
2.577493375,'8' (0x08),,
2.5777538125,'2' (0x02),,
2.5780143125,'0' (0x00),,
2.57827475,'5' (0x05),,
2.5785351875,'1' (0x01),,
2.578795625,'6' (0x06),,
2.5790560625,'255' (0xFF),,
2.5793165,9 (0x39),,
2.5795769375,'0' (0x00),,
2.579837375,'0' (0x00),,
2.5800978125,\ (0x5C),,
2.58035825,{ (0x7B),,

RX10
01 A4 80 00 03 0A 02 03 05 01 06 FF 39 00 02 C4 00 C1 DE
2.60593625,'1' (0x01),,
2.6062228125,'164' (0xA4),,
2.6065095625,'128' (0x80),,
2.60679625,'0' (0x00),,
2.607083,'3' (0x03),,
2.6073696875,\n (0x0A),,
2.607656375,'2' (0x02),,
2.607943125,'3' (0x03),,
2.608229875,'5' (0x05),,
2.6085165625,'1' (0x01),,
2.60880325,'6' (0x06),,
2.60909,'255' (0xFF),,
2.60937675,9 (0x39),,
2.6096634375,'0' (0x00),,
2.609950125,'2' (0x02),,
2.610236875,'196' (0xC4),,		(Mains Voltage #1)
2.6105235625,'0' (0x00),,
2.6108103125,'193' (0xC1),,
2.611097,'222' (0xDE),,
**********************************************************************


TX11
01 A4 80 03 00 08 02 00 05 02 FF FF 01 0D 00 26 62
2.6261698125,'1' (0x01),,
2.6264303125,'164' (0xA4),,
2.62669075,'128' (0x80),,
2.6269511875,'3' (0x03),,
2.627211625,'0' (0x00),,
2.6274720625,'8' (0x08),,
2.6277325,'2' (0x02),,
2.6279929375,'0' (0x00),,
2.628253375,'5' (0x05),,
2.6285138125,'2' (0x02),,
2.62877425,'255' (0xFF),,
2.6290346875,'255' (0xFF),,
2.629295125,'1' (0x01),,
2.6295555625,\r (0x0D),,
2.629816,'0' (0x00),,
2.6300764375,& (0x26),,
2.630336875,b (0x62),,

RX11
01 A4 80 00 03 09 02 03 05 02 FF FF 01 0D 01 01 72 76
2.7019605,'1' (0x01),,
2.7022470625,'164' (0xA4),,
2.70253375,'128' (0x80),,
2.7028205,'0' (0x00),,
2.7031071875,'3' (0x03),,
2.7033939375,\t (0x09),,
2.703680625,'2' (0x02),,
2.703967375,'3' (0x03),,
2.7042540625,'5' (0x05),,
2.7045408125,'2' (0x02),,
2.7048275,'255' (0xFF),,
2.70511425,'255' (0xFF),,
2.705401,'1' (0x01),,
2.7056876875,\r (0x0D),,
2.705974375,'1' (0x01),,
2.7062610625,'1' (0x01),,
2.7065478125,r (0x72),,
2.7068345,v (0x76),,
**********************************************************************


TX12
01 A4 80 03 00 08 02 00 05 02 07 FF 03 00 00 A2 66
2.7265959375,'1' (0x01),,
2.726856375,'164' (0xA4),,
2.7271168125,'128' (0x80),,
2.72737725,'3' (0x03),,
2.7276376875,'0' (0x00),,
2.727898125,'8' (0x08),,
2.7281585625,'2' (0x02),,
2.728419,'0' (0x00),,
2.7286794375,'5' (0x05),,
2.728939875,'2' (0x02),,
2.729200375,'7' (0x07),,
2.7294608125,'255' (0xFF),,
2.72972125,'3' (0x03),,
2.7299816875,'0' (0x00),,
2.730242125,'0' (0x00),,
2.7305025625,'162' (0xA2),,
2.730763,f (0x66),,

RX12
01 A4 80 00 03 0A 02 03 05 02 07 FF 03 00 02 60 00 D1 2C
2.7455154375,'1' (0x01),,
2.745802,'164' (0xA4),,
2.74608875,'128' (0x80),,
2.7463754375,'0' (0x00),,
2.7466621875,'3' (0x03),,
2.746948875,\n (0x0A),,
2.7472355625,'2' (0x02),,
2.7475223125,'3' (0x03),,
2.7478090625,'5' (0x05),,
2.74809575,'2' (0x02),,
2.7483824375,'7' (0x07),,
2.7486691875,'255' (0xFF),,
2.7489559375,'3' (0x03),,
2.749242625,'0' (0x00),,
2.7495293125,'2' (0x02),,
2.7498160625,` (0x60),,			(Current[A] #2)
2.7501028125,'0' (0x00),,
2.7503895,'209' (0xD1),,
2.7506761875,, (0x2C),,
**********************************************************************


TX13
01 A4 80 03 00 08 02 00 05 02 06 FF 04 00 00 A3 EA
2.776157875,'1' (0x01),,
2.7764183125,'164' (0xA4),,
2.77667875,'128' (0x80),,
2.7769391875,'3' (0x03),,
2.777199625,'0' (0x00),,
2.7774600625,'8' (0x08),,
2.7777205,'2' (0x02),,
2.7779809375,'0' (0x00),,
2.778241375,'5' (0x05),,
2.778501875,'2' (0x02),,
2.7787623125,'6' (0x06),,
2.77902275,'255' (0xFF),,
2.7792831875,'4' (0x04),,
2.779543625,'0' (0x00),,
2.7798040625,'0' (0x00),,
2.7800645,'163' (0xA3),,
2.7803249375,'234' (0xEA),,

RX13
01 A4 80 00 03 0A 02 03 05 02 06 FF 04 00 02 23 00 E1 B8
2.7895135,'1' (0x01),,
2.7898000625,'164' (0xA4),,
2.7900868125,'128' (0x80),,
2.7903735,'0' (0x00),,
2.79066025,'3' (0x03),,
2.7909469375,\n (0x0A),,
2.7912336875,'2' (0x02),,
2.791520375,'3' (0x03),,
2.791807125,'5' (0x05),,
2.7920938125,'2' (0x02),,
2.7923805625,'6' (0x06),,
2.79266725,'255' (0xFF),,
2.792954,'4' (0x04),,
2.7932406875,'0' (0x00),,
2.7935274375,'2' (0x02),,
2.793814125,# (0x23),,			(Temperature #2)
2.794100875,'0' (0x00),,
2.7943875625,'225' (0xE1),,
2.7946743125,'184' (0xB8),,
**********************************************************************


TX14
01 A4 80 03 00 08 02 00 05 02 06 FF 39 00 00 6F 7B
2.80618675,'1' (0x01),,
2.8064471875,'164' (0xA4),,
2.806707625,'128' (0x80),,
2.8069680625,'3' (0x03),,
2.8072285,'0' (0x00),,
2.8074889375,'8' (0x08),,
2.807749375,'2' (0x02),,
2.8080098125,'0' (0x00),,
2.80827025,'5' (0x05),,
2.8085306875,'2' (0x02),,
2.808791125,'6' (0x06),,
2.8090515625,'255' (0xFF),,
2.809312,9 (0x39),,
2.8095725,'0' (0x00),,
2.8098329375,'0' (0x00),,
2.810093375,o (0x6F),,
2.8103538125,{ (0x7B),,

RX14
01 A4 80 00 03 0A 02 03 05 02 06 FF 39 00 02 C3 00 E4 9C
2.838724625,'1' (0x01),,
2.8390111875,'164' (0xA4),,
2.8392979375,'128' (0x80),,
2.839584625,'0' (0x00),,
2.839871375,'3' (0x03),,
2.8401580625,\n (0x0A),,
2.8404448125,'2' (0x02),,
2.8407315,'3' (0x03),,
2.84101825,'5' (0x05),,
2.8413049375,'2' (0x02),,
2.841591625,'6' (0x06),,
2.841878375,'255' (0xFF),,
2.842165125,9 (0x39),,
2.8424518125,'0' (0x00),,
2.8427385,'2' (0x02),,
2.84302525,'195' (0xC3),,		(Mains Voltage #2)
2.843312,'0' (0x00),,
2.8435986875,'228' (0xE4),,
2.8438854375,'156' (0x9C),,
**********************************************************************


TX15
01 A4 80 03 00 08 02 00 05 03 FF FF 01 0D 00 F7 63
2.856165375,'1' (0x01),,
2.8564258125,'164' (0xA4),,
2.85668625,'128' (0x80),,
2.8569466875,'3' (0x03),,
2.857207125,'0' (0x00),,
2.8574675625,'8' (0x08),,
2.8577280625,'2' (0x02),,
2.8579885,'0' (0x00),,
2.8582489375,'5' (0x05),,
2.858509375,'3' (0x03),,
2.8587698125,'255' (0xFF),,
2.85903025,'255' (0xFF),,
2.8592906875,'1' (0x01),,
2.859551125,\r (0x0D),,
2.8598115625,'0' (0x00),,
2.860072,'247' (0xF7),,
2.8603324375,c (0x63),,

RX15
2.9454616875,'1' (0x01),,
2.94574825,'164' (0xA4),,
2.9460349375,'128' (0x80),,
2.9463216875,'0' (0x00),,
2.946608375,'3' (0x03),,
2.946895125,\t (0x09),,
2.9471818125,'2' (0x02),,
2.9474685625,'3' (0x03),,
2.94775525,'5' (0x05),,
2.948042,'3' (0x03),,
2.9483286875,'255' (0xFF),,
2.9486415,'255' (0xFF),,
2.94892825,'1' (0x01),,
2.949214875,\r (0x0D),,
2.949501625,'1' (0x01),,
2.949788375,'1' (0x01),,
2.9500750625,'178' (0xB2),,
2.9503618125,f (0x66),,
**********************************************************************


TX16
01 A4 80 03 00 08 02 00 05 03 07 FF 03 00 00 73 67
2.96620175,'1' (0x01),,
2.9664621875,'164' (0xA4),,
2.966722625,'128' (0x80),,
2.9669830625,'3' (0x03),,
2.9672435,'0' (0x00),,
2.9675039375,'8' (0x08),,
2.967764375,'2' (0x02),,
2.9680248125,'0' (0x00),,
2.9682853125,'5' (0x05),,
2.96854575,'3' (0x03),,
2.9688061875,'7' (0x07),,
2.969066625,'255' (0xFF),,
2.9693270625,'3' (0x03),,
2.9695875,'0' (0x00),,
2.9698479375,'0' (0x00),,
2.970108375,s (0x73),,
2.9703688125,g (0x67),,

RX16
01 A4 80 00 03 0A 02 03 05 03 07 FF 03 00 02 5B 00 2D FE
2.9835950625,'1' (0x01),,
2.983881625,'164' (0xA4),,
2.984168375,'128' (0x80),,
2.9844550625,'0' (0x00),,
2.9847418125,'3' (0x03),,
2.9850285,\n (0x0A),,
2.98531525,'2' (0x02),,
2.9856019375,'3' (0x03),,
2.9858886875,'5' (0x05),,
2.986175375,'3' (0x03),,
2.9864620625,'7' (0x07),,
2.9867488125,'255' (0xFF),,
2.9870355625,'3' (0x03),,
2.98732225,'0' (0x00),,
2.9876089375,'2' (0x02),,
2.9878956875,[ (0x5B),,			(Current[A] #3)
2.988182375,'0' (0x00),,
2.988469125,- (0x2D),,
2.9887558125,'254' (0xFE),,
**********************************************************************


TX17
01 A4 80 03 00 08 02 00 05 03 06 FF 04 00 00 72 EB
2.9961525,'1' (0x01),,
2.9964129375,'164' (0xA4),,
2.996673375,'128' (0x80),,
2.9969338125,'3' (0x03),,
2.99719425,'0' (0x00),,
2.9974546875,'8' (0x08),,
2.997715125,'2' (0x02),,
2.9979755625,'0' (0x00),,
2.998236,'5' (0x05),,
2.9984964375,'3' (0x03),,
2.998756875,'6' (0x06),,
2.9990173125,'255' (0xFF),,
2.99927775,'4' (0x04),,
2.9995381875,'0' (0x00),,
2.9997986875,'0' (0x00),,
3.000059125,r (0x72),,
3.0003195625,'235' (0xEB),,

RX17
01 A4 80 00 03 0A 02 03 05 03 06 FF 04 00 02 22 00 BD 78
3.0160723125,'1' (0x01),,
3.016358875,'164' (0xA4),,
3.016645625,'128' (0x80),,
3.0169323125,'0' (0x00),,
3.0172190625,'3' (0x03),,
3.01750575,\n (0x0A),,
3.0177925,'2' (0x02),,
3.0180791875,'3' (0x03),,
3.0183659375,'5' (0x05),,
3.0186786875,'3' (0x03),,
3.0189654375,'6' (0x06),,
3.019252125,'255' (0xFF),,
3.019538875,'4' (0x04),,
3.0198255625,'0' (0x00),,
3.0201123125,'2' (0x02),,
3.020399," (0x22),,				(Temperature #3)
3.0206856875,'0' (0x00),,
3.0209724375,'189' (0xBD),,
3.0212591875,x (0x78),,
**********************************************************************


TX18
01 A4 80 03 00 08 02 00 05 03 06 FF 39 00 00 BE 7A
3.0265199375,'1' (0x01),,
3.026780375,'164' (0xA4),,
