Time [s],Value,Parity Error,Framing Error


TX3
01 A4 80 03 00 08 02 00 05 FF FF 00 35 1F 00 B1 0A
3.179880125,	'1' (0x01),,
3.1801405625, '164' (0xA4),,
3.180401,	  '128' (0x80),,
3.1806614375,	'3' (0x03),,
3.180921875,	'0' (0x00),,
3.1811823125,	'8' (0x08),,
3.1814428125,	'2' (0x02),,
3.18170325,		'0' (0x00),,
3.1819636875,	'5' (0x05),,
3.182224125,  '255' (0xFF),,
3.1824845625, '255' (0xFF),,
3.182745,		'0' (0x00),,
3.1830054375,	 5  (0x35),,
3.183265875,   '31' (0x1F),,
3.1835263125,	'0' (0x00),,
3.18378675,	  '177' (0xB1),,
3.1840471875,	\n  (0x0A),,

RX3
01 A4 80 00 03 2C 02 03 05 FF FF 00 35 1F 24 52 65 63 74 43 6F 6D 6D 20 45 72 72 6F 72 20 20 01 00 00 01 55 6E 69 74 28 73 29 20 20 20 20 20 20 20 20 00 61 42
3.2075269375,	'1' (0x01),,
3.2078135,	  '164' (0xA4),,
3.2081001875, '128' (0x80),,
3.2083869375,	'0' (0x00),,
3.208673625,	'3' (0x03),,
3.208960375,	 ,  (0x2C),,
3.2092470625,	'2' (0x02),,
3.20953375,		'3' (0x03),,
3.2098205,		'5' (0x05),,
3.2101071875, '255' (0xFF),,
3.2103939375, '255' (0xFF),,
3.2106806875,	'0' (0x00),,
3.210967375,	 5  (0x35),,
3.2112540625,  '31' (0x1F),,
3.21154075,		 $  (0x24),,
3.2118275,		 R  (0x52),,
3.2121141875,	 e  (0x65),,
3.2124009375,	 c 	(0x63),,
3.212687625,	 t 	(0x74),,
3.212974375,	 C  (0x43),,
3.2132610625,	 o  (0x6F),,
3.2135478125,	 m 	(0x6D),,
3.2138345,		 m 	(0x6D),,
3.2141211875,	' ' (0x20),,
3.2144079375,	 E  (0x45),,
3.214694625,	 r 	(0x72),,
3.214981375,	 r 	(0x72),,
3.2152680625,	 o 	(0x6F),,
3.21555475,		 r 	(0x72),,
3.2158415,		' ' (0x20),,
3.2161281875,	' ' (0x20),,
3.2164149375,	'1' (0x01),,	(Alarm monitor:  	0x01 - no Alarm,	0x0B - Alarm minor, 	0x0A - Alarm major, 	0x04 - Off Alarm monitor)
3.216701625,	'0' (0x00),,	(LoByte "RectComm Error" Unit(s))
3.216988375,	'0' (0x00),,	(HiByte "RectComm Error" Unit(s))
3.2172750625,	'1' (0x01),,	(Alarm monitor: 	0x01 - включено, 	0x00 - выключено)
3.2175618125,	 U 	(0x55),,
3.2178485,		 n 	(0x6E),,
3.2181351875,	 i 	(0x69),,
3.2184219375,	 t 	(0x74),,
3.218708625,	 ( 	(0x28),,
3.218995375,	 s 	(0x73),,
3.2192820625,	 ) 	(0x29),,
3.21956875,		' ' (0x20),,
3.2198555,		' ' (0x20),,
3.2201421875,	' ' (0x20),,
3.2204289375,	' ' (0x20),,
3.220715625,	' ' (0x20),,
3.221002375,	' ' (0x20),,
3.2212890625,	' ' (0x20),,
3.2215758125,	' ' (0x20),,
3.2218625,		'0' (0x00),,
3.22214925,		 a 	(0x61),,
3.2224359375,	 B 	(0x42),,
*************************************************************************

TX4
01 A4 80 03 00 08 02 00 05 FF FF 00 04 1F 00 7E 5B
3.2397553125,	'1' (0x01),,
3.24001575,	  '164' (0xA4),,
3.2402761875, '128' (0x80),,
3.240536625,	'3' (0x03),,
3.2407970625,	'0' (0x00),,
3.2410575,		'8' (0x08),,
3.2413179375,	'2' (0x02),,
3.241578375,	'0' (0x00),,
3.2418388125,	'5' (0x05),,
3.24209925,	  '255' (0xFF),,
3.2423596875, '255' (0xFF),,
3.242620125,	'0' (0x00),,
3.2428805625,	'4' (0x04),,
3.243141,	   '31' (0x1F),,
3.2434014375,	'0' (0x00),,
3.243661875,	 ~  (0x7E),,
3.2439223125,	 [  (0x5B),,

RX4
01 A4 80 00 03 2C 02 03 05 FF FF 00 04 1F 24 52 65 63 74 69 66 69 65 72 54 65 6D 70 20 20 20 04 18 00 00 43 65 6C 73 69 75 73 20 20 20 20 20 20 20 20 00 68 36
3.252515,		'1' (0x01),,
3.2528015625, '164' (0xA4),,
3.2530883125, '128' (0x80),,
3.253375,		'0' (0x00),,
3.25366175,		'3' (0x03),,
3.2539484375,	 ,  (0x2C),,
3.2542351875,	'2' (0x02),,
3.254521875,	'3' (0x03),,
3.254808625,	'5' (0x05),,
3.2550953125, '255' (0xFF),,
3.2553820625, '255' (0xFF),,
3.25566875,		'0' (0x00),,
3.2559554375,	'4' (0x04),,
3.2562421875,  '31' (0x1F),,
3.256528875,	 $  (0x24),,
3.2568155625,	 R  (0x52),,
3.2571023125,	 e  (0x65),,
3.257389,		 c  (0x63),,
3.25767575,		 t  (0x74),,
3.2579624375,	 i  (0x69),,
3.2582491875,	 f  (0x66),,
3.258535875,	 i  (0x69),,
3.258822625,	 e  (0x65),,
3.2591093125,	 r  (0x72),,
3.2593960625,	 T  (0x54),,
3.25968275,		 e  (0x65),,
3.2599694375,	 m  (0x6D),,
3.2602561875,	 p  (0x70),,
3.260542875,	' ' (0x20),,
3.260829625,	' ' (0x20),,
3.2611163125,	' ' (0x20),,
3.2614030625,	'4' (0x04),,		(Alarm monitor:  	0x01 - no Alarm,	 0x08 - Major low		0x09 - Minor low		0x0B - Minor high, 	0x0A - Major high, 	0x04 - Off Alarm monitor)
3.26168975,	   '24' (0x18),,		(LoByte RectifierTemp Celsius)
3.2619764375,	'0' (0x00),,		(HiByte RectifierTemp Celsius)
3.2622631875,	'0' (0x00),,		(Alarm monitor: 	0x01 - включено, 	0x00 - выключено)
3.262549875,	 C  (0x43),,
3.262836625,	 e  (0x65),,
3.2631233125,	 l  (0x6C),,
3.2634100625,	 s  (0x73),,
3.26369675,		 i  (0x69),,
3.2639834375,	 u  (0x75),,
3.2642701875,	 s  (0x73),,
3.264556875,	' ' (0x20),,
3.264843625,	' ' (0x20),,
3.2651303125,	' ' (0x20),,
3.2654170625,	' ' (0x20),,
3.26570375,		' ' (0x20),,
3.2659904375,	' ' (0x20),,
3.2662771875,	' ' (0x20),,
3.266563875,	' ' (0x20),,
3.266850625,	'0' (0x00),,
3.2671373125,	 h  (0x68),,
3.267424,		 6  (0x36),,
*************************************************************************

TX5
01 A4 80 03 00 08 02 00 05 FF FF 00 31 1F 00 70 4B
3.2797328125,'1' (0x01),,
3.27999325,'164' (0xA4),,
3.2802536875,'128' (0x80),,
3.2805141875,'3' (0x03),,
3.280774625,'0' (0x00),,
3.2810350625,'8' (0x08),,
3.2812955,'2' (0x02),,
3.2815559375,'0' (0x00),,
3.281816375,'5' (0x05),,
3.2820768125,'255' (0xFF),,
3.28233725,'255' (0xFF),,
3.2825976875,'0' (0x00),,
3.282858125,1 (0x31),,
3.2831185625,'31' (0x1F),,
3.283379,'0' (0x00),,
3.2836394375,p (0x70),,
3.283899875,K (0x4B),,


RX5
01 A4 80 00 03 2C 02 03 05 FF FF 00 31 1F 24 52 65 63 74 2E 20 43 61 70 61 63 69 74 79 20 20 04 00 00 00 25 20 20 20 20 20 20 20 20 20 20 20 20 20 20 00 D9 D9
3.2962259375,	'1' (0x01),,
3.2965125,	  '164' (0xA4),,
3.29679925,   '128' (0x80),,
3.2970859375,	'0' (0x00),,
3.2973726875,	'3' (0x03),,
3.297659375,	 ,  (0x2C),,
3.2979460625,	'2' (0x02),,
3.2982328125,	'3' (0x03),,
3.2985195,		'5' (0x05),,
3.29880625,   '255' (0xFF),,
3.299093,	  '255' (0xFF),,
3.2993796875,	'0' (0x00),,
3.299666375,	 1  (0x31),,
3.299953125,   '31' (0x1F),,
3.3002398125,	 $  (0x24),,
3.3005265,		 R  (0x52),,
3.30081325,		 e  (0x65),,
3.3010999375,	 c  (0x63),,
3.3013866875,	 t  (0x74),,
3.301673375,	 .  (0x2E),,
3.3019600625,	' ' (0x20),,
3.3022468125,	 C  (0x43),,
3.3025335,		 a  (0x61),,
3.30282025,		 p  (0x70),,
3.3031069375,	 a  (0x61),,
3.3033936875,	 c  (0x63),,
3.303680375,	 i  (0x69),,
3.3039670625,	 t  (0x74),,
3.3042538125,	 y  (0x79),,
3.3045405,		' ' (0x20),,
3.30482725,		' ' (0x20),,
3.3051139375,	'4' (0x04),,		(Alarm monitor: 	0x01 - no Alarm,	0x02 - Minor Alarm,		0x03 - Major Alarm		0x04 - Off Alarm monitor)
3.3054006875,	'0' (0x00),,		(LoByte Rect. Capacity %)
3.305687375,	'0' (0x00),,		(HiByte Rect. Capacity %)
3.305974125,	'0' (0x00),,		(Alarm monitor: 	0x01 - включено, 	0x00 - выключено)
3.3062608125,	 %  (0x25),,
3.3065475,		' ' (0x20),,
3.30683425,		' ' (0x20),,
3.3071209375,	' ' (0x20),,
3.3074076875,	' ' (0x20),,
3.307694375,	' ' (0x20),,
3.3079810625,	' ' (0x20),,
3.3082678125,	' ' (0x20),,
3.3085545,		' ' (0x20),,
3.30884125,		' ' (0x20),,
3.3091279375,	' ' (0x20),,
3.3094146875,	' ' (0x20),,
3.309701375,	' ' (0x20),,
3.309988125,	' ' (0x20),,
3.3102748125,	' ' (0x20),,
3.3105615,		'0' (0x00),,
3.31084825,   '217' (0xD9),,
3.3111349375, '217' (0xD9),,
*************************************************************************

TX6
01 A4 80 03 00 08 02 00 05 FF FF 00 43 1F 00 6B EB
3.3197624375,'1' (0x01),,
3.320022875,'164' (0xA4),,
3.320283375,'128' (0x80),,
3.3205438125,'3' (0x03),,
3.32080425,'0' (0x00),,
3.3210646875,'8' (0x08),,
3.321325125,'2' (0x02),,
3.3215855625,'0' (0x00),,
3.321846,'5' (0x05),,
3.3221064375,'255' (0xFF),,
3.322366875,'255' (0xFF),,
3.3226273125,'0' (0x00),,
3.32288775,C (0x43),,
3.3231481875,'31' (0x1F),,
3.323408625,'0' (0x00),,
3.3236690625,k (0x6B),,
3.3239295,'235' (0xEB),,


RX6
01 A4 80 00 03 2C 02 03 05 FF FF 00 43 1F 24 52 65 63 74 43 75 72 72 53 68 61 72 65 45 72 72 04 00 00 00 25 20 20 20 20 20 20 20 20 20 20 20 20 20 20 00 F6 31
3.3415789375,'1' (0x01),,
3.3418655,'164' (0xA4),,
3.34215225,'128' (0x80),,
3.3424389375,'0' (0x00),,
3.3427256875,'3' (0x03),,
3.343012375,, (0x2C),,
3.343299125,'2' (0x02),,
3.3435858125,'3' (0x03),,
3.3438725,'5' (0x05),,
3.34415925,'255' (0xFF),,
3.344446,'255' (0xFF),,
3.3447326875,'0' (0x00),,
3.345019375,C (0x43),,
3.345306125,'31' (0x1F),,
3.3455928125,$ (0x24),,
3.3458795,R (0x52),,
3.34616625,e (0x65),,
3.3464529375,c (0x63),,
3.3467396875,t (0x74),,
3.347026375,C (0x43),,
3.347313125,u (0x75),,
3.3475998125,r (0x72),,
3.3478865625,r (0x72),,
3.34817325,S (0x53),,
3.3484599375,h (0x68),,
3.3487466875,a (0x61),,
3.349033375,r (0x72),,
3.349320125,e (0x65),,
3.3496068125,E (0x45),,
3.3498935,r (0x72),,
3.35018025,r (0x72),,
3.3504669375,'4' (0x04),,		(Alarm monitor: 	0x01 - no Alarm,	0x02 - Minor Alarm,		0x03 - Major Alarm		0x04 - Off Alarm monitor)
3.3507536875,'0' (0x00),,		(LoByte RectCurrShareErr %)
3.351040375,'0' (0x00),,		(HiByte RectCurrShareErr %)
3.351327125,'0' (0x00),,		(Alarm monitor: 	0x01 - включено, 	0x00 - выключено)
3.3516138125,% (0x25),,
3.3519005625,' ' (0x20),,
3.35218725,' ' (0x20),,
3.3524739375,' ' (0x20),,
3.3527606875,' ' (0x20),,
3.353047375,' ' (0x20),,
3.353334125,' ' (0x20),,
3.3536208125,' ' (0x20),,
3.3539075625,' ' (0x20),,
3.35419425,' ' (0x20),,
3.3544809375,' ' (0x20),,
3.3547676875,' ' (0x20),,
3.355054375,' ' (0x20),,
3.355341125,' ' (0x20),,
3.3556278125,' ' (0x20),,
3.3559145625,'0' (0x00),,
3.35620125,'246' (0xF6),,
3.356488,1 (0x31),,
*************************************************************************

TX7
01 A4 80 03 00 08 02 00 05 FF FF 00 36 1F 00 B1 FA
3.369740875,'1' (0x01),,
3.3700013125,'164' (0xA4),,
3.37026175,'128' (0x80),,
3.37052225,'3' (0x03),,
3.3707826875,'0' (0x00),,
3.371043125,'8' (0x08),,
3.3713035625,'2' (0x02),,
3.371564,'0' (0x00),,
3.3718244375,'5' (0x05),,
3.372084875,'255' (0xFF),,
3.3723453125,'255' (0xFF),,
3.37260575,'0' (0x00),,
3.3728661875,6 (0x36),,
3.373126625,'31' (0x1F),,
3.3733870625,'0' (0x00),,
3.3736475,'177' (0xB1),,
3.3739079375,'250' (0xFA),,

RX7
01 A4 80 00 03 2C 02 03 05 FF FF 00 36 1F 24 52 65 63 74 69 66 69 65 72 45 72 72 6F 72 20 20 01 00 00 01 55 6E 69 74 28 73 29 20 20 20 20 20 20 20 20 00 27 CD
3.43139875,'1' (0x01),,
3.431685375,'164' (0xA4),,
3.4319720625,'128' (0x80),,
3.4322588125,'0' (0x00),,
3.4325455,'3' (0x03),,
3.4328321875,, (0x2C),,
3.4331189375,'2' (0x02),,
3.433405625,'3' (0x03),,
3.4336923125,'5' (0x05),,
3.4339790625,'255' (0xFF),,
3.4342658125,'255' (0xFF),,
3.4345525,'0' (0x00),,
3.4348391875,6 (0x36),,
3.4351259375,'31' (0x1F),,
3.435412625,$ (0x24),,
3.435699375,R (0x52),,
3.4359860625,e (0x65),,
3.43627275,c (0x63),,
3.4365595,t (0x74),,
3.4368461875,i (0x69),,
3.4371329375,f (0x66),,
3.437419625,i (0x69),,
3.4377063125,e (0x65),,
3.4379930625,r (0x72),,
3.43827975,E (0x45),,
3.4385665,r (0x72),,
3.4388531875,r (0x72),,
3.4391399375,o (0x6F),,
3.439426625,r (0x72),,
3.439713375,' ' (0x20),,
3.4400000625,' ' (0x20),,
3.4402868125,'1' (0x01),,		(Alarm monitor: 	0x01 - no Alarm,	0x02 - Minor Alarm,		0x03 - Major Alarm		0x04 - Off Alarm monitor)
3.4405735,'0' (0x00),,			(LoByte RectifierError Unit(s))
3.4408601875,'0' (0x00),,		(HiByte RectifierError Unit(s))
3.4411469375,'1' (0x01),,		(Alarm monitor: 	0x01 - включено, 	0x00 - выключено)
3.441433625,U (0x55),,
3.4417203125,n (0x6E),,
3.4420070625,i (0x69),,
3.4422938125,t (0x74),,
3.4425805,( (0x28),,
3.4428671875,s (0x73),,
3.4431539375,) (0x29),,
3.443440625,' ' (0x20),,
3.443727375,' ' (0x20),,
3.4440140625,' ' (0x20),,
3.4443008125,' ' (0x20),,
3.4445875,' ' (0x20),,
3.4448741875,' ' (0x20),,
3.4451609375,' ' (0x20),,
3.445447625,' ' (0x20),,
3.445734375,'0' (0x00),,
3.4460210625,' (0x27),,
3.44630775,'205' (0xCD),,
*************************************************************************

TX8
01 A4 80 03 00 08 02 00 05 FF FF 00 03 1F 00 BF EA
3.4698019375,'1' (0x01),,
3.470062375,'164' (0xA4),,
3.4703228125,'128' (0x80),,
3.47058325,'3' (0x03),,
3.4708436875,'0' (0x00),,
3.471104125,'8' (0x08),,
3.4713645625,'2' (0x02),,
3.471625,'0' (0x00),,
3.4718854375,'5' (0x05),,
3.4721459375,'255' (0xFF),,
3.472406375,'255' (0xFF),,
3.4726668125,'0' (0x00),,
3.47292725,'3' (0x03),,
3.4731876875,'31' (0x1F),,
3.473448125,'0' (0x00),,
3.4737085625,'191' (0xBF),,
3.473969,'234' (0xEA),,


RX8
01 A4 80 00 03 2C 02 03 05 FF FF 00 03 1F 24 52 65 63 74 69 66 69 65 72 43 75 72 72 65 6E 74 01 00 00 01 41 6D 70 20 20 20 20 20 20 20 20 20 20 20 20 00 F1 9E
3.4859005625,'1' (0x01),,
3.4861871875,'164' (0xA4),,
3.486473875,'128' (0x80),,
3.486760625,'0' (0x00),,
3.4870473125,'3' (0x03),,
3.487334,, (0x2C),,
3.48762075,'2' (0x02),,
3.4879074375,'3' (0x03),,
3.488194125,'5' (0x05),,
3.488480875,'255' (0xFF),,
3.488767625,'255' (0xFF),,
3.4890543125,'0' (0x00),,
3.489341,'3' (0x03),,
3.48962775,'31' (0x1F),,
3.4899144375,$ (0x24),,
3.4902011875,R (0x52),,
3.490487875,e (0x65),,
3.4907745625,c (0x63),,
3.4910613125,t (0x74),,
3.491348,i (0x69),,
3.49163475,f (0x66),,
3.4919214375,i (0x69),,
3.492208125,e (0x65),,
3.492494875,r (0x72),,
3.4927815625,C (0x43),,
3.4930683125,u (0x75),,
3.493355,r (0x72),,
3.49364175,r (0x72),,
3.4939284375,e (0x65),,
3.4942151875,n (0x6E),,
3.494501875,t (0x74),,
3.4947885625,'1' (0x01),,		(Alarm monitor: 	0x01 - no Alarm,	0x02 - Minor Alarm,		0x03 - Major Alarm		0x04 - Off Alarm monitor)
3.4950753125,'0' (0x00),,		(LoByte RectifierCurrent Amp)
3.495362,'0' (0x00),,			(HiByte RectifierCurrent Amp)
3.49564875,'1' (0x01),,			(Alarm monitor: 	0x01 - включено, 	0x00 - выключено)
3.4959354375,A (0x41),,
3.4962221875,m (0x6D),,
3.496508875,p (0x70),,
3.4967955625,' ' (0x20),,
3.4970823125,' ' (0x20),,
3.497369,' ' (0x20),,
3.49765575,' ' (0x20),,
3.4979424375,' ' (0x20),,
3.498229125,' ' (0x20),,
3.498515875,' ' (0x20),,
3.4988025625,' ' (0x20),,
3.4990893125,' ' (0x20),,
3.499376,' ' (0x20),,
3.49966275,' ' (0x20),,
3.4999494375,' ' (0x20),,
3.5002361875,'0' (0x00),,
3.500522875,'241' (0xF1),,
3.500809625,'158' (0x9E),,
*************************************************************************

TX9
01 A4 80 03 00 08 02 00 05 FF FF 00 01 34 00 8F 55
3.519780375,'1' (0x01),,
3.5200408125,'164' (0xA4),,
3.52030125,'128' (0x80),,
3.5205616875,'3' (0x03),,
3.520822125,'0' (0x00),,
3.5210825625,'8' (0x08),,
3.521343,'2' (0x02),,
3.5216034375,'0' (0x00),,
3.521863875,'5' (0x05),,
3.5221243125,'255' (0xFF),,
3.5223848125,'255' (0xFF),,
3.52264525,'0' (0x00),,
3.5229056875,'1' (0x01),,
3.523166125,4 (0x34),,
3.5234265625,'0' (0x00),,
3.523687,'143' (0x8F),,
3.5239474375,U (0x55),,


RX9
01 A4 80 00 03 09 02 06 05 FF FF 00 01 34 01 01 F4 A1
01 A4 80 00 03 09 02 06 05 FF FF 00 01 34 01 0A 33 E0
3.54295675,'1' (0x01),,
3.5432433125,'164' (0xA4),,
3.5435300625,'128' (0x80),,
3.54381675,'0' (0x00),,
3.5441035,'3' (0x03),,
3.5443901875,\t (0x09),,
3.544676875,'2' (0x02),,
3.544963625,'6' (0x06),,
3.5452503125,'5' (0x05),,
3.5455370625,'255' (0xFF),,
3.5458238125,'255' (0xFF),,
3.5461105,'0' (0x00),,
3.5463971875,'1' (0x01),,
3.546683875,4 (0x34),,
3.546970625,'1' (0x01),,
3.5472573125,'1' (0x01),,		Efficiency manager status (Disabled)
3.5475440625,'244' (0xF4),,
3.54783075,'161' (0xA1),,
*************************************************************************

TX10
3.5610080625,'1' (0x01),,
3.5612685,'164' (0xA4),,
3.5615289375,'128' (0x80),,
3.561789375,'3' (0x03),,
3.5620498125,'0' (0x00),,
3.56231025,'8' (0x08),,
3.5625706875,'2' (0x02),,
3.562831125,'0' (0x00),,
3.5630915625,'5' (0x05),,
3.563352,'255' (0xFF),,
3.5636124375,'255' (0xFF),,
3.563872875,'0' (0x00),,
3.5641333125,7 (0x37),,
3.56439375,'0' (0x00),,
3.5646541875,'0' (0x00),,
3.564914625,A (0x41),,
3.5651750625,'163' (0xA3),,


RX10
3.659180375,'1' (0x01),,
3.6594669375,'164' (0xA4),,
3.6597536875,'128' (0x80),,
3.660040375,'0' (0x00),,
3.6603270625,'3' (0x03),,
3.6606138125,'8' (0x08),,
3.6609005,'2' (0x02),,
3.6611871875,'2' (0x02),,
3.6614739375,'5' (0x05),,
3.661760625,'255' (0xFF),,
3.662047375,'255' (0xFF),,
3.662334125,'0' (0x00),,
3.6626208125,7 (0x37),,
3.6629075,'0' (0x00),,
3.66319425,'0' (0x00),,
3.6634809375,'216' (0xD8),,
3.6637676875,) (0x29),,
*************************************************************************

TX11
3.67979475,'1' (0x01),,
3.6800551875,'164' (0xA4),,
3.680315625,'128' (0x80),,
3.6805760625,'3' (0x03),,
3.6808365,'0' (0x00),,
3.6810969375,'8' (0x08),,
3.681357375,'2' (0x02),,
3.6816178125,'0' (0x00),,
3.68187825,'5' (0x05),,
3.6821386875,'255' (0xFF),,
3.682399125,'255' (0xFF),,
3.6826595625,'0' (0x00),,
3.68292,'1' (0x01),,
3.6831804375,1 (0x31),,
3.683440875,'0' (0x00),,
3.6837013125,'223' (0xDF),,
3.68396175,V (0x56),,
*************************************************************************

TX12
3.72094425,'1' (0x01),,
3.7212046875,'164' (0xA4),,
3.721465125,'128' (0x80),,
3.7217255625,'3' (0x03),,
3.721986,'0' (0x00),,
3.7222464375,'8' (0x08),,
3.722506875,'2' (0x02),,
3.7227673125,'0' (0x00),,
3.72302775,'5' (0x05),,
3.7232881875,'255' (0xFF),,
3.723548625,'255' (0xFF),,
3.7238090625,'0' (0x00),,
3.7240695,7 (0x37),,
3.7243299375,'4' (0x04),,
3.724590375,'0' (0x00),,
3.7248508125,'129' (0x81),,
3.72511125,'161' (0xA1),,
*************************************************************************

TX13
3.759801875,'1' (0x01),,
3.7600623125,'164' (0xA4),,
3.76032275,'128' (0x80),,
3.7605831875,'3' (0x03),,
3.760843625,'0' (0x00),,
3.7611040625,'8' (0x08),,
3.7613645,'2' (0x02),,
3.7616249375,'0' (0x00),,
3.7618854375,'5' (0x05),,
3.762145875,'255' (0xFF),,
3.7624063125,'255' (0xFF),,
3.76266675,'0' (0x00),,
3.7629271875,'1' (0x01),,
3.763187625,2 (0x32),,
3.7634480625,'0' (0x00),,
3.7637085,/ (0x2F),,
3.7639689375,V (0x56),,
*************************************************************************

TX14
3.7914974375,'1' (0x01),,
3.791757875,'164' (0xA4),,
3.7920183125,'128' (0x80),,
3.79227875,'3' (0x03),,
3.7925391875,'0' (0x00),,
3.792799625,'8' (0x08),,
3.7930600625,'2' (0x02),,
3.7933205,'0' (0x00),,
3.7935809375,'5' (0x05),,
3.793841375,'255' (0xFF),,
3.7941018125,'255' (0xFF),,
3.79436225,'0' (0x00),,
3.7946226875,7 (0x37),,
3.794883125,'22' (0x16),,
3.795143625,'0' (0x00),,
3.7954040625,! (0x21),,
3.7956645,'173' (0xAD),,
*************************************************************************

TX15
3.81978125,'1' (0x01),,
3.8200416875,'164' (0xA4),,
3.820302125,'128' (0x80),,
3.8205625625,'3' (0x03),,
3.820823,'0' (0x00),,
3.8210834375,'8' (0x08),,
3.821343875,'2' (0x02),,
3.8216043125,'0' (0x00),,
3.82186475,'5' (0x05),,
3.8221251875,'255' (0xFF),,
3.822385625,'255' (0xFF),,
3.8226460625,'0' (0x00),,
3.8229065,'1' (0x01),,
3.8231669375,4 (0x34),,
3.823427375,'0' (0x00),,
3.8236878125,'143' (0x8F),,
3.82394825,U (0x55),,
*************************************************************************

TX16
3.8737965,'1' (0x01),,
3.8740569375,'164' (0xA4),,
3.874317375,'128' (0x80),,
3.8745778125,'3' (0x03),,
3.87483825,'0' (0x00),,
3.8750986875,'8' (0x08),,
3.875359125,'2' (0x02),,
3.8756195625,'0' (0x00),,
3.87588,'5' (0x05),,
3.8761404375,'255' (0xFF),,
3.876400875,'255' (0xFF),,
3.8766613125,'0' (0x00),,
3.87692175,7 (0x37),,
3.8771821875,'3' (0x03),,
3.877442625,'0' (0x00),,
3.8777030625,'177' (0xB1),,
3.8779635,'163' (0xA3),,
*************************************************************************

TX17
3.91981625,'1' (0x01),,
3.9200766875,'164' (0xA4),,
3.920337125,'128' (0x80),,
3.9205975625,'3' (0x03),,
3.920858,'0' (0x00),,
3.9211184375,'8' (0x08),,
