Time [s],Value,Parity Error,Framing Error

TX-1
01 A4 80 03 00 08 02 00 02 FF FF FF 44 01 00 DE 15
3.368841125,	'1' (0x01),,
3.3691015625, '164' (0xA4),,
3.369362,	  '128' (0x80),,
3.3696224375,	'3' (0x03),,
3.369882875,	'0' (0x00),,
3.370143375,	'8' (0x08),,
3.3704038125,	'2' (0x02),,
3.37066425,		'0' (0x00),,
3.3709246875,	'2' (0x02),,
3.371185125,  '255' (0xFF),,
3.3714455625, '255' (0xFF),,
3.371706,     '255' (0xFF),,
3.3719664375,	 D  (0x44),,
3.372226875,	'1' (0x01),,
3.3724873125,	'0' (0x00),,
3.37274775,	  '222' (0xDE),,
3.3730081875,  '21' (0x15),,

RX-1
01 A4 80 00 03 0C 02 03 02 FF FF FF 44 01 04 8C 0C 00 00 55 7D (???)
01 A4 80 00 03 0C 02 03 02 FF FF FF 44 01 04 BE 0E 00 00 2D D2 (???)
01 A4 80 00 03 0C 02 03 02 FF FF FF 44 01 04 BD 0E 00 00 69 D2 (???)
01 A4 80 00 03 0C 02 03 02 FF FF FF 44 01 04 27 43 00 00 A6 6C (???)
3.38862975,		'1' (0x01),,
3.38891625,	  '164' (0xA4),,
3.389203,	  '128' (0x80),,
3.3894896875,	'0' (0x00),,
3.389776375,	'3' (0x03),,
3.390063125,   '12' (0x0C),,
3.390349875,	'2' (0x02),,
3.3906365625,	'3' (0x03),,
3.39092325,		'2' (0x02),,
3.39121,	  '255' (0xFF),,
3.39149675,	  '255' (0xFF),,
3.3917834375, '255' (0xFF),,
3.3920701875,	 D  (0x44),,
3.392356875,	'1' (0x01),,
3.3926435625,	'4' (0x04),,
3.3929303125, '140' (0x8C),,
3.393217,	   '12' (0x0C),,
3.3935036875,	'0' (0x00),,
3.3937904375,	'0' (0x00),,
3.394077125,	 U  (0x55),,
3.394363875,	 }  (0x7D),,
*************************************************************************



TX-2
01 A4 80 03 00 08 02 00 02 FF FF FF 4F 01 00 1C 64
3.5085934375,	'1' (0x01),,
3.508853875,  '164' (0xA4),,
3.5091143125, '128' (0x80),,
3.50937475,		'3' (0x03),,
3.5096351875,	'0' (0x00),,
3.5098956875,	'8' (0x08),,
3.510156125,	'2' (0x02),,
3.5104165625,	'0' (0x00),,
3.510677,		'2' (0x02),,
3.5109374375, '255' (0xFF),,
3.511197875,  '255' (0xFF),,
3.5114583125, '255' (0xFF),,
3.51171875,		 O  (0x4F),,
3.5119791875,	'1' (0x01),,
3.512239625,	'0' (0x00),,
3.5125000625,  '28' (0x1C),,
3.5127605,		 d  (0x64),,

RX-2
01 A4 80 00 03 0C 02 03 02 FF FF FF 4F 01 04 00 00 00 00 06 2D (???)
3.5343599375,	'1' (0x01),,
3.534646375,  '164' (0xA4),,
3.534933125,  '128' (0x80),,
3.535219875,	'0' (0x00),,
3.5355065625,	'3' (0x03),,
3.53579325,    '12' (0x0C),,
3.53608,		'2' (0x02),,
3.5363666875,	'3' (0x03),,
3.5366534375,	'2' (0x02),,
3.536940125,  '255' (0xFF),,
3.537226875,  '255' (0xFF),,
3.537513625,  '255' (0xFF),,
3.5378003125,	 O  (0x4F),,
3.538087,		'1' (0x01),,
3.53837375,		'4' (0x04),,
3.5386604375,	'0' (0x00),,
3.5389471875,	'0' (0x00),,
3.539233875,	'0' (0x00),,
3.5395205625,	'0' (0x00),,
3.5398073125,	'6' (0x06),,
3.540094,		 -  (0x2D),,
*************************************************************************



TX-3
01 A4 80 03 00 08 02 00 02 FF FF 01 01 2A 00 13 2B
3.6695195625,	'1' (0x01),,
3.66978,	  '164' (0xA4),,
3.6700404375, '128' (0x80),,
3.670300875,	'3' (0x03),,
3.6705613125,	'0' (0x00),,
3.67082175,	    '8' (0x08),,
3.6710821875,	'2' (0x02),,
3.671342625,	'0' (0x00),,
3.671603125,	'2' (0x02),,
3.6718635625, '255' (0xFF),,
3.672124,     '255' (0xFF),,
3.6723844375,	'1' (0x01),,
3.672644875,	'1' (0x01),,
3.6729053125,	 *  (0x2A),,
3.67316575,	    '0' (0x00),,
3.6734261875,  '19' (0x13),,
3.673686625,	 +  (0x2B),,

RX-3
01 A4 80 00 03 09 02 03 02 FF FF 01 01 2A 01 00 44 43 (???)
3.68819625,		'1' (0x01),,
3.6884828125, '164' (0xA4),,
3.6887695625, '128' (0x80),,
3.68905625,		'0' (0x00),,
3.6893429375,	'3' (0x03),,
3.6896296875,	\t  (0x09),,
3.6899164375,	'2' (0x02),,
3.690203125,	'3' (0x03),,
3.6904898125,	'2' (0x02),,
3.6907765625, '255' (0xFF),,
3.6910633125, '255' (0xFF),,
3.69135,		'1' (0x01),,
3.6916366875,	'1' (0x01),,
3.6919234375,	 *  (0x2A),,
3.692210125,	'1' (0x01),,
3.692496875,	'0' (0x00),,
3.6927835625,	 D  (0x44),,
3.6930703125,	 C  (0x43),,
*************************************************************************



TX-4
01 A4 80 03 00 08 02 00 02 FF FF 03 01 00 00 CB 35
4.1882908125,	'1' (0x01),,
4.18855125,	  '164' (0xA4),,
4.1888116875, '128' (0x80),,
4.189072125,	'3' (0x03),,
4.1893325625,	'0' (0x00),,
4.189593,		'8' (0x08),,
4.1898534375,	'2' (0x02),,
4.190113875,	'0' (0x00),,
4.1903743125,	'2' (0x02),,
4.19063475,   '255' (0xFF),,
4.1908951875, '255' (0xFF),,
4.191155625,	'3' (0x03),,
4.1914160625,	'1' (0x01),,
4.1916765,		'0' (0x00),,
4.1919369375,	'0' (0x00),,
4.192197375,  '203' (0xCB),,
4.1924578125,	 5  (0x35),,

RX-4
01 A4 80 00 03 08 02 02 02 FF FF 03 01 00 00 52 BF    (???)
4.214633875,	'1' (0x01),,
4.2149203125, '164' (0xA4),,
4.215207,	  '128' (0x80),,
4.21549375,		'0' (0x00),,
4.2157804375,	'3' (0x03),,
4.2160671875,	'8' (0x08),,
4.216353875,	'2' (0x02),,
4.2166405625,	'2' (0x02),,
4.2169273125,	'2' (0x02),,
4.217214,	  '255' (0xFF),,
4.21750075,   '255' (0xFF),,
4.2177875,		'3' (0x03),,
4.2180741875,	'1' (0x01),,
4.218360875,	'0' (0x00),,
4.218647625,	'0' (0x00),,
4.2189343125,	 R  (0x52),,
4.2192210625, '191' (0xBF),,
*************************************************************************



TX-5
01 A4 80 03 00 08 02 00 02 FF FF FF 06 01 00 CA B5
4.267881375,	'1' (0x01),,
4.2681418125, '164' (0xA4),,
4.26840225,   '128' (0x80),,
4.2686626875,	'3' (0x03),,
4.268923125,	'0' (0x00),,
4.2691835625,	'8' (0x08),,
4.269444,		'2' (0x02),,
4.2697044375,	'0' (0x00),,
4.269964875,	'2' (0x02),,
4.2702253125, '255' (0xFF),,
4.27048575,   '255' (0xFF),,
4.2707461875, '255' (0xFF),,
4.271006625,	'6' (0x06),,
4.2712670625,	'1' (0x01),,
4.2715275625,	'0' (0x00),,
4.271788,	  '202' (0xCA),,
4.2720484375, '181' (0xB5),,

RX-5
01 A4 80 00 03 09 02 06 02 FF FF FF 06 01 01 01 7C E5 (???)
4.28847625,		'1' (0x01),,
4.2887628125, '164' (0xA4),,
4.2890495625, '128' (0x80),,
4.28933625,		'0' (0x00),,
4.2896229375,	'3' (0x03),,
4.2899096875,	\t  (0x09),,
4.290196375,	'2' (0x02),,
4.290483125,	'6' (0x06),,
4.2907698125,	'2' (0x02),,
4.2910565625, '255' (0xFF),,
4.2913433125, '255' (0xFF),,
4.29163,	  '255' (0xFF),,
4.29191675,	 	'6' (0x06),,
4.2922034375,	'1' (0x01),,
4.292490125,	'1' (0x01),,
4.2927768125,	'1' (0x01),,
4.2930635625,	 |  (0x7C),,
4.29335025,	  '229' (0xE5),,
*************************************************************************



TX-6
01 A4 80 03 00 08 02 00 02 FF FF FF 11 1F 00 6E 0C
4.307364125,	'1' (0x01),,
4.3076245625, '164' (0xA4),,
4.307885,	  '128' (0x80),,
4.3081454375,	'3' (0x03),,
4.308405875,	'0' (0x00),,
4.3086663125,	'8' (0x08),,
4.30892675,		'2' (0x02),,
4.3091871875,	'0' (0x00),,
4.309447625,	'2' (0x02),,
4.3097080625, '255' (0xFF),,
4.3099685625, '255' (0xFF),,
4.310229,	  '255' (0xFF),,
4.3104894375,  '17' (0x11),,
4.310749875,   '31' (0x1F),,
4.3110103125,   '0' (0x00),,
4.31127075,		 n  (0x6E),,
4.3115311875,  '12' (0x0C),,

RX-6
01 A4 80 00 03 2C 02 03 02 FF FF FF 11 1F 24 42 61 74 74 65 72 79 55 73 65 64 43 61 70 20 20 04 C3 00 00 41 68 20 20 20 20 20 20 20 20 20 20 20 20 20 00 CE B2
4.3362015625,	'1' (0x01),,
4.3364880625, '164' (0xA4),,
4.3367748125, '128' (0x80),,
4.3370615,		'0' (0x00),,
4.33734825,		'3' (0x03),,
4.3376349375,	 ,  (0x2C),,
4.337921625,	'2' (0x02),,
4.338208375,	'3' (0x03),,
4.3384950625,	'2' (0x02),,
4.3387818125, '255' (0xFF),,
4.3390685625, '255' (0xFF),,
4.33935525,   '255' (0xFF),,
4.339642,	   '17' (0x11),,
4.3399286875,  '31' (0x1F),,
4.340215375,	 $  (0x24),,
4.340502125,	 B  (0x42),,
4.3407888125,	 a  (0x61),,
4.3410755,		 t  (0x74),,
4.34136225,		 t  (0x74),,
4.341649,		 e  (0x65),,
4.3419356875,	 r  (0x72),,
4.3422224375,	 y  (0x79),,
4.342509125,	 U  (0x55),,
4.3427958125,	 s  (0x73),,
4.3430825625,	 e  (0x65),,
4.34336925,		 d  (0x64),,
4.343656,		 C  (0x43),,
4.3439426875,	 a  (0x61),,
4.3442294375,	 p  (0x70),,
4.344516125,	' ' (0x20),,
4.344802875,	' ' (0x20),,
4.3450895625,	'4' (0x04),,	(Alarm monitor:  	0x01 - no Alarm,	 0x02 - Minor Alarm		0x03 - Major Alarm		0x04 - Off Alarm monitor)
4.3453763125, '195' (0xC3),,  	(LoByte BatteryUsedCap Ah)
4.345663,		'0' (0x00),,	(HiByte BatteryUsedCap Ah)
4.34594975,		'0' (0x00),,	(Alarm monitor: 	0x01 - включено, 	0x00 - выключено)
4.3462364375,	 A  (0x41),,
4.346523125,	 h  (0x68),,
4.346809875,	' ' (0x20),,
4.3470965625,	' ' (0x20),,
4.3473833125,	' ' (0x20),,
4.34767,		' ' (0x20),,
4.34795675,		' ' (0x20),,
4.3482434375,	' ' (0x20),,
4.3485301875,	' ' (0x20),,
4.348816875,	' ' (0x20),,
4.3491035625,	' ' (0x20),,
4.3493903125,	' ' (0x20),,
4.3496770625,	' ' (0x20),,
4.34996375,		' ' (0x20),,
4.3502504375,	' ' (0x20),,
4.3505371875,	'0' (0x00),,
4.350823875,  '206' (0xCE),,
4.351110625,  '178' (0xB2),,
*************************************************************************


***EVENT FUSE***
TX-7
01 A4 80 03 00 08 02 00 02 FF FF FF 01 32 00 FB 10
4.3592959375,	'1' (0x01),,
4.359556375,  '164' (0xA4),,
4.3598168125, '128' (0x80),,
4.36007725,		'3' (0x03),,
4.3603376875,	'0' (0x00),,
4.360598125,	'8' (0x08),,
4.3608585625,	'2' (0x02),,
4.361119,		'0' (0x00),,
4.3613794375,	'2' (0x02),,
4.3616399375, '255' (0xFF),,
4.361900375,  '255' (0xFF),,
4.3621608125, '255' (0xFF),,
4.36242125,		'1' (0x01),,
4.3626816875,	 2  (0x32),,
4.362942125,	'0' (0x00),,
4.3632025625, '251' (0xFB),,
4.363463,	   '16' (0x10),,

RX-7
01 A4 80 00 03 09 02 03 02 FF FF FF 01 32 01 01 57 2B (No Alarm)
01 A4 80 00 03 09 02 03 02 FF FF FF 01 32 01 02 56 6B ("Minor Alarm")
01 A4 80 00 03 09 02 03 02 FF FF FF 01 32 01 03 96 AA ("Major Alarm")
01 A4 80 00 03 09 02 03 02 FF FF FF 01 32 01 04 54 EB (Alarm monitor OFF)
4.3759248125,	'1' (0x01),,
4.3762113125, '164' (0xA4),,
4.3764980625, '128' (0x80),,
4.37678475,		'0' (0x00),,
4.3770715,		'3' (0x03),,
4.3773581875,	\t  (0x09),,
4.3776449375,	'2' (0x02),,
4.377931625,	'3' (0x03),,
4.378218375,	'2' (0x02),,
4.3785050625, '255' (0xFF),,
4.3787918125, '255' (0xFF),,
4.3790785625, '255' (0xFF),,
4.37936525,	 	'1' (0x01),,
4.3796519375	 2  (0x32),,
4.379938625,	'1' (0x01),,
4.380225375,	'1' (0x01),,
4.3805120625,	 W  (0x57),,
4.3807988125,	 +  (0x2B),,
*************************************************************************


TX-8
01 A4 80 03 00 08 02 00 02 FF FF FF 02 1F 00 AB FD
4.3892986875,	'1' (0x01),,
4.389559125,  '164' (0xA4),,
4.3898195625, '128' (0x80),,
4.39008,		'3' (0x03),,
4.3903404375,	'0' (0x00),,
4.390600875,	'8' (0x08),,
4.3908613125,	'2' (0x02),,
4.39112175,		'0' (0x00),,
4.3913821875,	'2' (0x02),,
4.391642625,  '255' (0xFF),,
4.3919030625, '255' (0xFF),,
4.3921635,    '255' (0xFF),,
4.3924239375,	'2' (0x02),,
4.392684375,   '31' (0x1F),,
4.3929448125,	'0' (0x00),,
4.3932053125, '171' (0xAB),,
4.39346575,   '253' (0xFD),,

RX-8
01 A4 80 00 03 2C 02 03 02 FF FF FF 02 1F 24 42 61 74 74 65 72 79 56 6F 6C 74 61 67 65 20 20 01 61 15 01 56 6F 6C 74 20 44 43 20 20 20 20 20 20 20 20 00 9E EF
4.441087625,	'1' (0x01),,
4.4413741875, '164' (0xA4),,
4.441660875,  '128' (0x80),,
4.441947625,	'0' (0x00),,
4.4422343125,	'3' (0x03),,
4.4425210625,	 ,  (0x2C),,
4.44280775,		'2' (0x02),,
4.4430944375,	'3' (0x03),,
4.4433811875,	'2' (0x02),,
4.4436679375, '255' (0xFF),,
4.4439546875, '255' (0xFF),,
4.444241375,  '255' (0xFF),,
4.4445280625,   '2' (0x02),,
4.44481475,	   '31' (0x1F),,
4.4451015,		 $  (0x24),,
4.4453881875,	 B  (0x42),,
4.4456749375,	 a  (0x61),,
4.445961625,	 t  (0x74),,
4.446248375,	 t  (0x74),,
4.4465350625,	 e  (0x65),,
4.4468218125,	 r  (0x72),,
4.4471085,		 y  (0x79),,
4.4473951875,	 V  (0x56),,
4.4476819375,	 o  (0x6F),,
4.447968625,	 l  (0x6C),,
4.448255375,	 t  (0x74),,
4.4485420625,	 a  (0x61),,
4.4488288125,	 g  (0x67),,
4.4491155,		 e  (0x65),,
4.44940225,		' ' (0x20),,
4.4496889375,	' ' (0x20),,
4.4499756875,	'1' (0x01),,	(Alarm monitor:  	0x01 - no Alarm,	 0x08 - Major low		0x09 - Minor low		0x0B - Minor high, 	0x0A - Major high, 	0x04 - Off Alarm monitor)
4.450262375,	 a  (0x61),,	(LoByte BatteryVoltage Volt DC)
4.4505490625,  '21' (0x15),,	(HiByte BatteryVoltage Volt DC) 	Пример: 0x1561 = 5473 / 100 = 54,73 Volt
4.4508358125,	'1' (0x01),,	(Alarm monitor: 	0x01 - включено, 	0x00 - выключено)
4.4511225625,	 V  (0x56),,
4.45140925,		 o  (0x6F),,
4.4516959375,	 l  (0x6C),,
4.4519826875,	 t  (0x74),,
4.452269375,	' ' (0x20),,
4.452556125,	 D  (0x44),,
4.4528428125,	 C  (0x43),,
4.4531295625,	' ' (0x20),,
4.45341625,	 	' ' (0x20),,
4.453703,		' ' (0x20),,
4.4539896875,	' ' (0x20),,
4.454276375,	' ' (0x20),,
4.454563125,	' ' (0x20),,
4.4548498125,	' ' (0x20),,
4.4551365625,	' ' (0x20),,
4.45542325,		'0' (0x00),,
4.45571,	  '158' (0x9E),,
4.45599675,	  '239' (0xEF),,
*************************************************************************


TX-9
01 A4 80 03 00 08 02 00 02 FF FF FF 43 1F 00 BF AD
4.4692799375,	'1' (0x01),,
4.469540375,  '164' (0xA4),,
4.4698008125, '128' (0x80),,
4.47006125,		'3' (0x03),,
4.4703216875,	'0' (0x00),,
4.470582125,	'8' (0x08),,
4.4708425625,	'2' (0x02),,
4.471103,		'0' (0x00),,
4.4713634375,	'2' (0x02),,
4.471623875,  '255' (0xFF),,
4.4718843125, '255' (0xFF),,
4.47214475,   '255' (0xFF),,
4.4724051875,	 C  (0x43),,
4.472665625,   '31' (0x1F),,
4.4729260625,	'0' (0x00),,
4.4731865,	  '191' (0xBF),,
4.4734469375, '173' (0xAD),,

RX-9
01 A4 80 00 03 2C 02 03 02 FF FF FF 43 1F 24 44 65 6C 74 61 53 74 72 69 6E 67 43 75 72 72 20 04 00 00 00 25 20 20 20 20 20 20 20 20 20 20 20 20 20 20 00 6E B5
4.4914455,		'1' (0x01),,
4.491732,	  '164' (0xA4),,
4.49201875,	  '128' (0x80),,
4.4923054375,	'0' (0x00),,
4.492592125,	'3' (0x03),,
4.492878875,	 ,  (0x2C),,
4.4931655625,	'2' (0x02),,
4.4934523125,	'3' (0x03),,
4.493739,		'2' (0x02),,
4.49402575,	  '255' (0xFF),,
4.4943125,	  '255' (0xFF),,
4.4945991875, '255' (0xFF),,
4.4948859375,	 C  (0x43),,
4.4951725625,  '31' (0x1F),,
4.4954593125,	 $  (0x24),,
4.4957460625,	 D  (0x44),,
4.49603275,		 e  (0x65),,
4.4963195,		 l  (0x6C),,
4.4966061875,	 t  (0x74),,
4.496892875,	 a  (0x61),,
4.497179625,	 S 	(0x53),,
4.4974663125,	 t  (0x74),,
4.4977530625,	 r  (0x72),,
4.49803975,		 i  (0x69),,
4.4983265,		 n  (0x6E),,
4.4986131875,	 g  (0x67),,
4.4988999375,	 C  (0x43),,
4.499186625,	 u  (0x75),,
4.499473375,	 r  (0x72),,
4.4997600625,	 r  (0x72),,
4.50004675,		' ' (0x20),,
4.5003335,		'4' (0x04),,  	(Alarm monitor: 	0x01 - no Alarm,	0x02 - Minor Alarm,		0x03 - Major Alarm		0x04 - Off Alarm monitor)
4.5006201875,	'0' (0x00),, 	(LoByte DeltaStringCurr %)
4.5009069375,	'0' (0x00),,	(HiByte DeltaStringCurr %)
4.501193625,	'0' (0x00),,	(Alarm monitor: 	0x01 - включено, 	0x00 - выключено)
4.501480375,	 %  (0x25),,
4.5017670625,	' ' (0x20),,
4.5020538125,	' ' (0x20),,
4.5023405,		' ' (0x20),,
4.50262725,		' ' (0x20),,
4.5029139375,	' ' (0x20),,
4.5032006875,	' ' (0x20),,
4.503487375,	' ' (0x20),,
4.5037740625,	' ' (0x20),,
4.5040608125,	' ' (0x20),,
4.5043475,		' ' (0x20),,
4.50463425,		' ' (0x20),,
4.5049209375,	' ' (0x20),,
4.5052076875,	' ' (0x20),,
4.505494375,	' ' (0x20),,
4.505781125,	'0' (0x00),,
4.5060678125,	 n  (0x6E),,
4.5063545625, '181' (0xB5),,
*************************************************************************



TX-10
01 A4 80 03 00 08 02 00 02 FF FF FF 34 1F 00 A5 1D
4.519388625,	'1' (0x01),,
4.5196490625, '164' (0xA4),,
4.5199095625, '128' (0x80),,
4.52017,		'3' (0x03),,
4.5204304375,	'0' (0x00),,
4.520690875,	'8' (0x08),,
4.5209513125,	'2' (0x02),,
4.52121175,		'0' (0x00),,
4.5214721875,	'2' (0x02),,
4.521732625,  '255' (0xFF),,
4.5219930625, '255' (0xFF),,
4.5222535,    '255' (0xFF),,
4.5225139375,	 4 	(0x34),,
4.522774375,   '31' (0x1F),,
4.5230348125,	'0' (0x00),,
4.52329525,	  '165' (0xA5),,
4.5235556875,  '29' (0x1D),,

RX-10
01 A4 80 00 03 2C 02 03 02 FF FF FF 34 1F 24 42 61 74 74 65 72 79 4C 69 66 65 54 69 6D 65 20 04 00 00 00 44 61 79 28 73 29 20 20 20 20 20 20 20 20 20 00 AE E9
4.535678,		'1' (0x01),,
4.5359645,	  '164' (0xA4),,
4.53625125,	  '128' (0x80),,
4.536538,		'0' (0x00),,
4.5368246875,	'3' (0x03),,
4.537111375,	 ,  (0x2C),,
4.537398125,	'2' (0x02),,
4.5376848125,	'3' (0x03),,
4.5379715625,	'2' (0x02),,
4.53825825,	  '255' (0xFF),,
4.538545,	  '255' (0xFF),,
4.53883175,	  '255' (0xFF),,
4.5391184375,	 4  (0x34),,
4.539405125,   '31' (0x1F),,
4.5396918125,	 $  (0x24),,
4.5399785625,	 B 	(0x42),,
4.5402653125,	 a  (0x61),,
4.540552,		 t 	(0x74),,
4.5408386875,	 t  (0x74),,
4.5411254375,	 e  (0x65),,
4.541412125,	 r  (0x72),,
4.541698875,	 y  (0x79),,
4.5419855625,	 L  (0x4C),,
4.5422723125,	 i  (0x69),,
4.542559,		 f  (0x66),,
4.54284575,		 e  (0x65),,
4.5431324375,	 T  (0x54),,
4.5434191875,	 i  (0x69),,
4.543705875,	 m  (0x6D),,
4.543992625,	 e  (0x65),,
4.5442793125,	' ' (0x20),,
4.544566,		'4' (0x04),,	(Alarm monitor: 	0x01 - no Alarm,	0x02 - Minor Alarm,		0x03 - Major Alarm		0x04 - Off Alarm monitor)
4.54485275,		'0' (0x00),,	(LoByte BatteryLifeTime Day(s))
4.5451394375,	'0' (0x00),,	(HiByte BatteryLifeTime Day(s))
4.5454261875,	'0' (0x00),,	(Alarm monitor: 	0x01 - включено, 	0x00 - выключено)
4.545712875,	 D  (0x44),,
4.545999625,	 a  (0x61),,
4.5462863125,	 y  (0x79),,
4.5465730625,	 ( 	(0x28),,
4.54685975,		 s 	(0x73),,
4.5471464375,	 )  (0x29),,
4.5474331875,	' ' (0x20),,
4.547719875,	' ' (0x20),,
4.548006625,	' ' (0x20),,
4.548293375,	' ' (0x20),,
4.5485800625,	' ' (0x20),,
4.54886675,		' ' (0x20),,
4.5491535,		' ' (0x20),,
4.5494401875,	' ' (0x20),,
4.5497269375,	' ' (0x20),,
4.550013625,	'0' (0x00),,
4.550300375,  '174' (0xAE),,
4.5507174375, '233' (0xE9),,
*************************************************************************



TX-11
01 A4 80 03 00 08 02 00 02 FF FF FF 03 1F 00 6B AC
4.56941925,		'1' (0x01),,
4.5696796875, '164' (0xA4),,
4.569940125,  '128' (0x80),,
4.5702005625,	'3' (0x03),,
4.570461,		'0' (0x00),,
4.5707214375,	'8' (0x08),,
4.570981875,	'2' (0x02),,
4.5712423125,	'0' (0x00),,
4.57150275,		'2' (0x02),,
4.5717631875, '255' (0xFF),,
4.572023625,  '255' (0xFF),,
4.5722840625, '255' (0xFF),,
4.5725445625,	'3' (0x03),,
4.572805,	   '31' (0x1F),,
4.5730654375,	'0' (0x00),,
4.573325875,	 k 	(0x6B),,
4.5735863125, '172' (0xAC),,

RX-11
01 A4 80 00 03 2C 02 03 02 FF FF FF 03 1F 24 42 61 74 74 65 72 79 43 75 72 72 65 6E 74 20 20 01 11 00 01 41 6D 70 20 20 20 20 20 20 20 20 20 20 20 20 00 60 AA
4.581370125,	'1' (0x01),,
4.5816566875, '164' (0xA4),,
4.5819434375, '128' (0x80),,
4.582230125,	'0' (0x00),,
4.582516875,	'3' (0x03),,
4.5828035625,	 ,  (0x2C),,
4.5830903125,	'2' (0x02),,
4.583377,		'3' (0x03),,
4.58366375,		'2' (0x02),,
4.5839504375, '255' (0xFF),,
4.5842371875, '255' (0xFF),,
4.584523875,  '255' (0xFF),,
4.584810625, 	'3' (0x03),,
4.5850973125,  '31' (0x1F),,
4.585384,		 $  (0x24),,
4.58567075,		 B  (0x42),,
4.5859574375,	 a  (0x61),,
4.5862441875,	 t  (0x74),,
4.586530875,	 t  (0x74),,
4.586817625,	 e  (0x65),,
4.5871043125,	 r  (0x72),,
4.587391,		 y  (0x79),,
4.5877038125,	 C  (0x43),,
4.5879905625,	 u  (0x75),,
4.58827725,		 r  (0x72),,
4.5885639375,	 r  (0x72),,
4.5888506875,	 e  (0x65),,
4.589137375,	 n  (0x6E),,
4.589424125,	 t  (0x74),,
4.5897108125,	' ' (0x20),,
4.5899975625,	' ' (0x20),,
4.59028425,		'1' (0x01),,	(Alarm monitor:  	0x01 - no Alarm,	 0x08 - Major low		0x09 - Minor low		0x0B - Minor high,		0x0A - Major high,		0x04 - Off Alarm monitor)
4.590571,	   '17' (0x11),,	(LoByte BatteryCurrent Amp)
4.5908576875,	'0' (0x00),,	(HiByte BatteryCurrent Amp)
4.5911444375,	'1' (0x01),,	(Alarm monitor: 	0x01 - включено, 	0x00 - выключено)
4.591431125,	 A 	(0x41),,
4.591717875,	 m 	(0x6D),,
4.5920045625,	 p 	(0x70),,
4.59229125,	    ' ' (0x20),,
4.592578,		' ' (0x20),,
4.5928646875,	' ' (0x20),,
4.5931514375,	' ' (0x20),,
4.593438125,	' ' (0x20),,
4.593724875,	' ' (0x20),,
4.5940115625,	' ' (0x20),,
