Time [s],Value,Parity Error,Framing Error


TX1
01 A4 80 03 00 08 02 00 01 FF 00 00 01 18 00 9B 18
0.2630190625,'1' (0x01),,
0.2632795,'164' (0xA4),,
0.2635399375,'128' (0x80),,
0.263800375,'3' (0x03),,
0.2640608125,'0' (0x00),,
0.26432125,'8' (0x08),,
0.26458175,'2' (0x02),,
0.2648421875,'0' (0x00),,
0.265102625,'1' (0x01),,
0.2653630625,'255' (0xFF),,
0.2656235,'0' (0x00),,
0.2658839375,'0' (0x00),,
0.266144375,'1' (0x01),,
0.2664048125,'24' (0x18),,
0.26666525,'0' (0x00),,
0.2669256875,'155' (0x9B),,
0.267186125,'24' (0x18),,

RX1
01 A4 80 00 03 09 02 03 01 FF 00 00 01 18 01 03 50 CB
0.287930875,'1' (0x01),,
0.288217375,'164' (0xA4),,
0.2885040625,'128' (0x80),,
0.2887908125,'0' (0x00),,
0.2890775,'3' (0x03),,
0.2893641875,\t (0x09),,
0.2896509375,'2' (0x02),,
0.2899376875,'3' (0x03),,
0.290224375,'1' (0x01),,
0.2905110625,'255' (0xFF),,
0.2907978125,'0' (0x00),,
0.2910845,'0' (0x00),,
0.29137125,'1' (0x01),,
0.2916579375,'24' (0x18),,
0.2919446875,'1' (0x01),,
0.292231375,'3' (0x03),,
0.292518125,P (0x50),,
0.2928048125,'203' (0xCB),,
***********************************************************************


TX4
1.194122625,'1' (0x01),,
1.1943830625,'164' (0xA4),,
1.1946435,'128' (0x80),,
1.1949039375,'3' (0x03),,
1.195164375,'0' (0x00),,
1.1954248125,'8' (0x08),,
1.1956853125,'2' (0x02),,
1.19594575,'0' (0x00),,
1.1962061875,'3' (0x03),,
1.196466625,'1' (0x01),,
1.1967270625,'255' (0xFF),,
1.1969875,'255' (0xFF),,
1.1972479375,'3' (0x03),,
1.197508375,'0' (0x00),,
1.1977688125,'0' (0x00),,
1.19802925,E (0x45),,
1.1982896875,'161' (0xA1),,


RX4
1.2126455625,'1' (0x01),,
1.212932125,'164' (0xA4),,
1.213218875,'128' (0x80),,
1.213505625,'0' (0x00),,
1.2137923125,'3' (0x03),,
1.214079,'8' (0x08),,
1.21436575,'2' (0x02),,
1.2146524375,'20' (0x14),,
1.2149391875,'3' (0x03),,
1.215225875,'1' (0x01),,
1.215512625,'255' (0xFF),,
1.215799375,'255' (0xFF),,
1.2160860625,'3' (0x03),,
1.21637275,'0' (0x00),,
1.2166595,'0' (0x00),,
1.2169461875,'250' (0xFA),,
1.2172329375,'170' (0xAA),,
***********************************************************************


TX5
1.2194115,'1' (0x01),,
1.2196719375,'164' (0xA4),,
1.219932375,'128' (0x80),,
1.2201928125,'3' (0x03),,
1.22045325,'0' (0x00),,
1.2207136875,'8' (0x08),,
1.220974125,'2' (0x02),,
1.2212345625,'0' (0x00),,
1.221495,'3' (0x03),,
1.2217554375,'1' (0x01),,
1.222015875,'255' (0xFF),,
1.2222763125,'255' (0xFF),,
1.22253675,'3' (0x03),,
1.2227971875,'4' (0x04),,
1.2230576875,'0' (0x00),,
1.223318125,'133' (0x85),,
1.2235785625,'163' (0xA3),,


RX5
1.23271575,'1' (0x01),,
1.233002375,'164' (0xA4),,
1.2332890625,'128' (0x80),,
1.2335758125,'0' (0x00),,
1.2338625,'3' (0x03),,
1.2341491875,'8' (0x08),,
1.2344359375,'2' (0x02),,
1.2347226875,'20' (0x14),,
1.235009375,'3' (0x03),,
1.2352960625,'1' (0x01),,
1.2355828125,'255' (0xFF),,
1.2358695625,'255' (0xFF),,
1.23615625,'3' (0x03),,
1.2364429375,'4' (0x04),,
1.2367296875,'0' (0x00),,
1.237016375,: (0x3A),,
1.237303125,'168' (0xA8),,
***********************************************************************


TX6
1.259024625,'1' (0x01),,
1.2592850625,'164' (0xA4),,
1.2595455,'128' (0x80),,
1.2598059375,'3' (0x03),,
1.260066375,'0' (0x00),,
1.2603268125,'8' (0x08),,
1.26058725,'2' (0x02),,
1.2608476875,'0' (0x00),,
1.261108125,'3' (0x03),,
1.2613685625,'1' (0x01),,
1.261629,'255' (0xFF),,
1.2618894375,'255' (0xFF),,
1.262149875,'8' (0x08),,
1.2624103125,. (0x2E),,
1.26267075,'0' (0x00),,
1.2629311875,' (0x27),,
1.2631916875,'205' (0xCD),,

RX6
1.2889905,'1' (0x01),,
1.289277125,'164' (0xA4),,
1.2895638125,'128' (0x80),,
1.2898505625,'0' (0x00),,
1.29013725,'3' (0x03),,
1.2904239375,'8' (0x08),,
1.2907106875,'2' (0x02),,
1.290997375,'2' (0x02),,
1.291284125,'3' (0x03),,
1.2915708125,'1' (0x01),,
1.2918575625,'255' (0xFF),,
1.2921443125,'255' (0xFF),,
1.292431,'8' (0x08),,
1.2927176875,. (0x2E),,
1.2930044375,'0' (0x00),,
1.293291125,'190' (0xBE),,
1.293577875,G (0x47),,
***********************************************************************


TX7
1.2995753125,'1' (0x01),,
1.29983575,'164' (0xA4),,
1.3000961875,'128' (0x80),,
1.300356625,'3' (0x03),,
1.3006170625,'0' (0x00),,
1.3008775,'8' (0x08),,
1.3011379375,'2' (0x02),,
1.301398375,'0' (0x00),,
1.3016588125,'3' (0x03),,
1.30191925,'1' (0x01),,
1.3021796875,'255' (0xFF),,
1.302440125,'255' (0xFF),,
1.302700625,'3' (0x03),,
1.3029610625,'22' (0x16),,
1.3032215,'0' (0x00),,
1.3034819375,% (0x25),,
1.303742375,'175' (0xAF),,

RX7
1.3281404375,'1' (0x01),,
1.328427,'164' (0xA4),,
1.32871375,'128' (0x80),,
1.3290004375,'0' (0x00),,
1.3292871875,'3' (0x03),,
1.329573875,'8' (0x08),,
1.329860625,'2' (0x02),,
1.3301473125,'20' (0x14),,
1.3304340625,'3' (0x03),,
1.33072075,'1' (0x01),,
1.3310075,'255' (0xFF),,
1.33129425,'255' (0xFF),,
1.3315809375,'3' (0x03),,
1.331867625,'22' (0x16),,
1.3321543125,'0' (0x00),,
1.3324410625,'154' (0x9A),,
1.33272775,'164' (0xA4),,
***********************************************************************


TX8
1.349189375,'1' (0x01),,
1.3494498125,'164' (0xA4),,
1.34971025,'128' (0x80),,
1.3499706875,'3' (0x03),,
1.350231125,'0' (0x00),,
1.3504915625,'8' (0x08),,
1.350752,'2' (0x02),,
1.3510124375,'0' (0x00),,
1.351272875,'3' (0x03),,
1.3515333125,'1' (0x01),,
1.35179375,'255' (0xFF),,
1.3520541875,'255' (0xFF),,
1.3523146875,'3' (0x03),,
1.352575125,'3' (0x03),,
1.3528355625,'0' (0x00),,
1.353096,'181' (0xB5),,
1.3533564375,'161' (0xA1),,

RX8
1.3856141875,'1' (0x01),,
1.38590075,'164' (0xA4),,
1.3861875,'128' (0x80),,
1.3864741875,'0' (0x00),,
1.3867609375,'3' (0x03),,
1.387047625,'8' (0x08),,
1.387334375,'2' (0x02),,
1.3876210625,'20' (0x14),,
1.38790775,'3' (0x03),,
1.3881945,'1' (0x01),,
1.3884811875,'255' (0xFF),,
1.3887679375,'255' (0xFF),,
1.3890546875,'3' (0x03),,
1.389341375,'3' (0x03),,
1.3896280625,'0' (0x00),,
1.3899148125,\n (0x0A),,
1.3902015,'170' (0xAA),,
***********************************************************************


TX9
01 A4 80 03 00 08 02 00 03 01 FF FF 08 20 00 47 C9
1.4020589375,'1' (0x01),,
1.402319375,'164' (0xA4),,
1.4025798125,'128' (0x80),,
1.40284025,'3' (0x03),,
1.4031006875,'0' (0x00),,
1.403361125,'8' (0x08),,
1.4036215625,'2' (0x02),,
1.403882,'0' (0x00),,
1.4041425,'3' (0x03),,
1.4044029375,'1' (0x01),,
1.404663375,'255' (0xFF),,
1.4049238125,'255' (0xFF),,
1.40518425,'8' (0x08),,
1.4054446875,' ' (0x20),,
1.405705125,'0' (0x00),,
1.4059655625,G (0x47),,
1.406226,'201' (0xC9),,

RX9
01 A4 80 00 03 09 02 03 03 01 FF FF 08 20 01 00 0D 97
1.42820475,'1' (0x01),,
1.4284913125,'164' (0xA4),,
1.428778,'128' (0x80),,
1.42906475,'0' (0x00),,
1.4293514375,'3' (0x03),,
1.4296381875,\t (0x09),,
1.429924875,'2' (0x02),,
1.4302115625,'3' (0x03),,
1.4304983125,'3' (0x03),,
1.430785,'1' (0x01),,
1.43107175,'255' (0xFF),,
1.4313585,'255' (0xFF),,
1.4316451875,'8' (0x08),,
1.431931875,' ' (0x20),,
1.432218625,'1' (0x01),,
1.4325053125,'0' (0x00),,
1.4327920625,\r (0x0D),,
1.43307875,'151' (0x97),,
***********************************************************************


TX10
1.452246,'1' (0x01),,
1.4525064375,'164' (0xA4),,
1.452766875,'128' (0x80),,
1.4530273125,'3' (0x03),,
1.45328775,'0' (0x00),,
1.4535481875,'8' (0x08),,
1.453808625,'2' (0x02),,
1.4540690625,'0' (0x00),,
1.4543295,'3' (0x03),,
1.4545899375,'1' (0x01),,
1.454850375,'255' (0xFF),,
1.4551108125,'255' (0xFF),,
1.45537125,'3' (0x03),,
1.4556316875,'5' (0x05),,
1.455892125,'0' (0x00),,
1.4561525625,'21' (0x15),,
1.4564130625,'162' (0xA2),,

RX10
1.4841145625,'1' (0x01),,
1.484401125,'164' (0xA4),,
1.484687875,'128' (0x80),,
1.4849745625,'0' (0x00),,
1.48526125,'3' (0x03),,
1.485548,'8' (0x08),,
1.4858346875,'2' (0x02),,
1.4861214375,'20' (0x14),,
1.486408125,'3' (0x03),,
1.486694875,'1' (0x01),,
1.4869815625,'255' (0xFF),,
1.4872683125,'255' (0xFF),,
1.4875550625,'3' (0x03),,
1.48784175,'5' (0x05),,
1.4881284375,'0' (0x00),,
1.4884151875,'170' (0xAA),,
1.488701875,'169' (0xA9),,
***********************************************************************


TX11
01 A4 80 03 00 08 02 00 06 01 01 11 0D 06 00 DA 8A
1.512980875,'1' (0x01),,
1.5132413125,'164' (0xA4),,
1.51350175,'128' (0x80),,
1.5137621875,'3' (0x03),,
1.514022625,'0' (0x00),,
1.5142830625,'8' (0x08),,
1.5145435,'2' (0x02),,
1.5148039375,'0' (0x00),,
1.515064375,'6' (0x06),,
1.515324875,'1' (0x01),,
1.5155853125,'1' (0x01),,
1.51584575,'17' (0x11),,
1.5161061875,\r (0x0D),,
1.516366625,'6' (0x06),,
1.5166270625,'0' (0x00),,
1.5168875,'218' (0xDA),,
1.5171479375,'138' (0x8A),,

RX11
01 A4 80 00 03 0A 02 03 06 01 01 11 0D 06 02 00 00 33 48
1.52866,'1' (0x01),,
1.5289465625,'164' (0xA4),,
1.52923325,'128' (0x80),,
1.52952,'0' (0x00),,
1.5298066875,'3' (0x03),,
1.530093375,\n (0x0A),,
1.530380125,'2' (0x02),,
1.530666875,'3' (0x03),,
1.5309535625,'6' (0x06),,
1.53124025,'1' (0x01),,
1.531527,'1' (0x01),,
1.5318136875,'17' (0x11),,
1.5321004375,\r (0x0D),,
1.532387125,'6' (0x06),,
1.532673875,'2' (0x02),,
1.5329605625,'0' (0x00),,
1.5332473125,'0' (0x00),,
1.533534,3 (0x33),,
1.53382075,H (0x48),,
***********************************************************************


TX12
01 A4 80 03 00 08 02 00 06 01 01 11 0D 08 00 BA 8E
1.5422545,'1' (0x01),,
1.5425149375,'164' (0xA4),,
1.542775375,'128' (0x80),,
1.5430358125,'3' (0x03),,
1.54329625,'0' (0x00),,
1.5435566875,'8' (0x08),,
1.543817125,'2' (0x02),,
1.5440775625,'0' (0x00),,
1.544338,'6' (0x06),,
1.5445984375,'1' (0x01),,
1.544858875,'1' (0x01),,
1.5451193125,'17' (0x11),,
1.54537975,\r (0x0D),,
1.5456401875,'8' (0x08),,
1.545900625,'0' (0x00),,
1.5461610625,'186' (0xBA),,
1.5464215625,'142' (0x8E),,

RX12
01 A4 80 00 03 0A 02 03 06 01 01 11 0D 08 02 01 00 4B 4B
1.55855675,'1' (0x01),,
1.5588433125,'164' (0xA4),,
1.5591300625,'128' (0x80),,
1.55941675,'0' (0x00),,
1.5597034375,'3' (0x03),,
1.5599901875,\n (0x0A),,
1.560276875,'2' (0x02),,
1.560563625,'3' (0x03),,
1.5608503125,'6' (0x06),,
1.5611370625,'1' (0x01),,
1.56142375,'1' (0x01),,
1.5617105,'17' (0x11),,
1.5619971875,\r (0x0D),,
1.5622839375,'8' (0x08),,
1.562570625,'2' (0x02),,
1.5629095,'1' (0x01),,
1.5631961875,'0' (0x00),,
1.5634829375,K (0x4B),,
1.563769625,K (0x4B),,
***********************************************************************

TX13
01 A4 80 03 00 08 02 00 06 01 01 11 0D 07 00 4A 8B
1.63301825,'1' (0x01),,
1.6332786875,'164' (0xA4),,
1.633539125,'128' (0x80),,
1.6337995625,'3' (0x03),,
1.63406,'0' (0x00),,
1.6343204375,'8' (0x08),,
1.634580875,'2' (0x02),,
1.6348413125,'0' (0x00),,
1.6351018125,'6' (0x06),,
1.63536225,'1' (0x01),,
1.6356226875,'1' (0x01),,
1.635883125,'17' (0x11),,
1.6361435625,\r (0x0D),,
1.636404,'7' (0x07),,
1.6366644375,'0' (0x00),,
1.636924875,J (0x4A),,
1.6371853125,'139' (0x8B),,

RX13
01 A4 80 00 03 0A 02 03 06 01 01 11 0D 07 02 00 00 CF 49
1.6700375625,'1' (0x01),,
1.670324125,'164' (0xA4),,
1.670610875,'128' (0x80),,
1.6708975625,'0' (0x00),,
1.6711843125,'3' (0x03),,
1.671471,\n (0x0A),,
1.67175775,'2' (0x02),,
1.6720444375,'3' (0x03),,
1.6723311875,'6' (0x06),,
1.672617875,'1' (0x01),,
1.6729045625,'1' (0x01),,
1.6731913125,'17' (0x11),,
1.673478,\r (0x0D),,
1.67376475,'7' (0x07),,
1.6740514375,'2' (0x02),,
1.6743381875,'0' (0x00),,
1.674624875,'0' (0x00),,
1.674911625,'207' (0xCF),,
1.6751983125,I (0x49),,
***********************************************************************

TX14
01 A4 80 03 00 08 02 00 06 01 01 11 0D 09 00 2A 8F
1.69234675,'1' (0x01),,
1.6926071875,'164' (0xA4),,
1.692867625,'128' (0x80),,
1.693128125,'3' (0x03),,
1.6933885625,'0' (0x00),,
1.693649,'8' (0x08),,
1.6939094375,'2' (0x02),,
1.694169875,'0' (0x00),,
1.6944303125,'6' (0x06),,
1.69469075,'1' (0x01),,
1.6949511875,'1' (0x01),,
1.695211625,'17' (0x11),,
1.6954720625,\r (0x0D),,
1.6957325,\t (0x09),,
1.6959929375,'0' (0x00),,
1.696253375,* (0x2A),,
1.6965138125,'143' (0x8F),,

RX14
01 A4 80 00 03 0A 02 03 06 01 01 11 0D 09 02 C8 00 E7 1C
1.70710225,'1' (0x01),,
1.707388875,'164' (0xA4),,
1.7076755625,'128' (0x80),,
1.70796225,'0' (0x00),,
1.708249,'3' (0x03),,
1.7085356875,\n (0x0A),,
1.7088224375,'2' (0x02),,
1.709109125,'3' (0x03),,
1.709395875,'6' (0x06),,
1.7096825625,'1' (0x01),,
1.7099693125,'1' (0x01),,
1.710256,'17' (0x11),,
1.71054275,\r (0x0D),,
1.7108294375,\t (0x09),,
1.7111161875,'2' (0x02),,
1.711402875,'200' (0xC8),,
1.711689625,'0' (0x00),,
1.7119763125,'231' (0xE7),,
1.7122630625,'28' (0x1C),,
***********************************************************************


TX15
01 A4 80 03 00 08 02 00 03 01 FF FF 08 1F 00 B7 D8
1.7999350625,'1' (0x01),,
1.8001955,'164' (0xA4),,
1.8004559375,'128' (0x80),,
1.800716375,'3' (0x03),,
1.8009768125,'0' (0x00),,
1.80123725,'8' (0x08),,
1.8014976875,'2' (0x02),,
1.801758125,'0' (0x00),,
1.8020185625,'3' (0x03),,
1.802279,'1' (0x01),,
1.8025395,'255' (0xFF),,
1.8027999375,'255' (0xFF),,
1.803060375,'8' (0x08),,
1.8033208125,'31' (0x1F),,
1.80358125,'0' (0x00),,
1.8038416875,'183' (0xB7),,
1.804102125,'216' (0xD8),,

RX15
1.829269875,'1' (0x01),,
1.829556375,'164' (0xA4),,
1.829843125,'128' (0x80),,
1.830129875,'0' (0x00),,
1.8304165625,'3' (0x03),,
1.83070325,, (0x2C),,
1.83099,'2' (0x02),,
1.8312766875,'3' (0x03),,
1.8315634375,'3' (0x03),,
1.831850125,'1' (0x01),,
1.832136875,'255' (0xFF),,
1.832423625,'255' (0xFF),,
1.8327103125,'8' (0x08),,
1.832997,'31' (0x1F),,
1.8332836875,$ (0x24),,
1.8335704375,L (0x4C),,
1.833857125,o (0x6F),,
1.834143875,a (0x61),,
1.8344305625,d (0x64),,
1.8347173125,F (0x46),,
1.835004,u (0x75),,
1.83529075,s (0x73),,
1.8355774375,e (0x65),,
1.8358641875,' ' (0x20),,
1.836150875,% (0x25),,
1.836437625,1 (0x31),,
1.8367243125,' ' (0x20),,
1.8370110625,' ' (0x20),,
1.83729775,' ' (0x20),,
1.8375845,' ' (0x20),,
1.8378711875,' ' (0x20),,
1.8381579375,'3' (0x03),,
1.838444625,'2' (0x02),,
1.8387313125,'0' (0x00),,
1.8390180625,'1' (0x01),,
1.8393048125,' ' (0x20),,
1.8395915,' ' (0x20),,
1.8398781875,' ' (0x20),,
1.8401649375,' ' (0x20),,
1.840451625,' ' (0x20),,
1.840738375,' ' (0x20),,
1.8410250625,' ' (0x20),,
1.8413118125,' ' (0x20),,
1.8415985,' ' (0x20),,
1.84188525,' ' (0x20),,
1.8421719375,' ' (0x20),,
1.8424586875,' ' (0x20),,
1.842745375,' ' (0x20),,
1.843032125,' ' (0x20),,
1.8433188125,' ' (0x20),,
1.8436055625,'0' (0x00),,
1.84389225,'199' (0xC7),,
1.844179,'178' (0xB2),,
***********************************************************************

TX16
01 A4 80 03 00 08 02 00 03 01 FF 00 01 08 00 51 37
1.8621284375,'1' (0x01),,
1.862388875,'164' (0xA4),,
1.8626493125,'128' (0x80),,
1.86290975,'3' (0x03),,
1.8631701875,'0' (0x00),,
1.863430625,'8' (0x08),,
1.8636910625,'2' (0x02),,
1.8639515,'0' (0x00),,
1.8642119375,'3' (0x03),,
1.864472375,'1' (0x01),,
1.864732875,'255' (0xFF),,
1.8649933125,'0' (0x00),,
1.86525375,'1' (0x01),,
1.8655141875,'8' (0x08),,
1.865774625,'0' (0x00),,
1.8660350625,Q (0x51),,
1.8662955,7 (0x37),,

RX16
01 A4 80 00 03 09 02 03 03 01 FF 00 01 08 01 01 4D C1
1.910489,'1' (0x01),,
1.9107755625,'164' (0xA4),,
1.91106225,'128' (0x80),,
1.911349,'0' (0x00),,
1.9116356875,'3' (0x03),,
1.9119224375,\t (0x09),,
1.912209125,'2' (0x02),,
1.9124958125,'3' (0x03),,
1.9127825625,'3' (0x03),,
1.91306925,'1' (0x01),,
1.913356,'255' (0xFF),,
1.91364275,'0' (0x00),,
1.9139294375,'1' (0x01),,
1.914216125,'8' (0x08),,
1.914502875,'1' (0x01),,
1.9147895625,'1' (0x01),,		(Number of LVLDs)
1.9150763125,M (0x4D),,
1.915363,'193' (0xC1),,
***********************************************************************


TX17
01 A4 80 03 00 08 02 08 03 01 FF 00 01 08 00 F7 36
1.935442625,'1' (0x01),,
1.9357030625,'164' (0xA4),,
1.9359635625,'128' (0x80),,
1.936224,'3' (0x03),,
1.9364844375,'0' (0x00),,
1.936744875,'8' (0x08),,
1.9370053125,'2' (0x02),,
1.93726575,'8' (0x08),,
1.9375261875,'3' (0x03),,
1.937786625,'1' (0x01),,
1.9380470625,'255' (0xFF),,
1.9383075,'0' (0x00),,
1.9385679375,'1' (0x01),,
1.938828375,'8' (0x08),,
1.9390888125,'0' (0x00),,
1.93934925,'247' (0xF7),,
1.9396096875,6 (0x36),,

RX17
01 A4 80 00 03 09 02 0B 03 01 FF 00 01 08 01 00 4D 67
1.9518023125,'1' (0x01),,
1.952088875,'164' (0xA4),,
1.9523755625,'128' (0x80),,
1.9526623125,'0' (0x00),,
1.952949,'3' (0x03),,
1.95323575,\t (0x09),,
1.9535224375,'2' (0x02),,
1.9538091875,'11' (0x0B),,
1.954095875,'3' (0x03),,
1.954382625,'1' (0x01),,
1.9546693125,'255' (0xFF),,
1.9549560625,'0' (0x00),,
1.95524275,'1' (0x01),,
1.9555295,'8' (0x08),,
1.9558161875,'1' (0x01),,
1.956102875,'0' (0x00),,
1.956389625,M (0x4D),,
1.9566763125,g (0x67),,
***********************************************************************


TX18
01 A4 80 03 00 08 02 07 03 01 FF 00 01 08 00 B7 76
1.972451375,'1' (0x01),,
1.9727118125,'164' (0xA4),,
1.97297225,'128' (0x80),,
1.9732326875,'3' (0x03),,
1.973493125,'0' (0x00),,
1.9737535625,'8' (0x08),,
1.974014,'2' (0x02),,
1.9742744375,'7' (0x07),,
1.974534875,'3' (0x03),,
1.9747953125,'1' (0x01),,
1.97505575,'255' (0xFF),,
1.9753161875,'0' (0x00),,
1.975576625,'1' (0x01),,
1.9758370625,'8' (0x08),,
1.9760975625,'0' (0x00),,
1.976358,'183' (0xB7),,
1.9766184375,v (0x76),,

RX18
01 A4 80 00 03 09 02 0C 03 01 FF 00 01 08 01 03 7C 01
1.998406875,'1' (0x01),,
1.9986934375,'164' (0xA4),,
1.998980125,'128' (0x80),,
1.999266875,'0' (0x00),,
1.9995535625,'3' (0x03),,
1.9998403125,\t (0x09),,
2.000127,'2' (0x02),,
2.00041375,'12' (0x0C),,
2.0007004375,'3' (0x03),,
2.0009871875,'1' (0x01),,
2.001273875,'255' (0xFF),,
2.001560625,'0' (0x00),,
2.0018473125,'1' (0x01),,
2.002160125,'8' (0x08),,
2.0024468125,'1' (0x01),,
2.0027335625,'3' (0x03),,
2.00302025,| (0x7C),,
2.0033069375,'1' (0x01),,
***********************************************************************


TX19
01 A4 80 03 00 08 02 00 03 01 01 FF 06 01 00 00 99
2.024774,'1' (0x01),,
2.0250344375,'164' (0xA4),,
2.025294875,'128' (0x80),,
2.0255553125,'3' (0x03),,
2.02581575,'0' (0x00),,
2.0260761875,'8' (0x08),,
2.026336625,'2' (0x02),,
2.026597125,'0' (0x00),,
2.0268575625,'3' (0x03),,
2.027118,'1' (0x01),,
2.0273784375,'1' (0x01),,
2.027638875,'255' (0xFF),,
2.0278993125,'6' (0x06),,
2.02815975,'1' (0x01),,
2.0284201875,'0' (0x00),,
2.028680625,'0' (0x00),,
2.0289410625,'153' (0x99),,

RX19
01 A4 80 00 03 09 02 06 03 01 01 FF 06 01 01 01 A1 2E
2.1208350625,'1' (0x01),,
2.121121625,'164' (0xA4),,
2.121408375,'128' (0x80),,
2.1216950625,'0' (0x00),,
2.1219818125,'3' (0x03),,
2.1222685,\t (0x09),,
2.1225551875,'2' (0x02),,
2.1228419375,'6' (0x06),,
2.123128625,'3' (0x03),,
2.123415375,'1' (0x01),,
2.123702125,'1' (0x01),,
2.1239888125,'255' (0xFF),,
2.1242755625,'6' (0x06),,
2.12456225,'1' (0x01),,
2.1248489375,'1' (0x01),,
2.1251356875,'5' (0x01),,		(LVLD 1.1 event status)
2.125422375,b (0xA1),,
2.125709125,/ (0x2E),,
***********************************************************************


TX20
01 A4 80 03 00 08 02 00 03 01 01 FF 06 04 00 50 9A
2.132544625,'1' (0x01),,
2.1328050625,'164' (0xA4),,
2.1330655,'128' (0x80),,
2.1333259375,'3' (0x03),,
2.133586375,'0' (0x00),,
2.1338468125,'8' (0x08),,
2.13410725,'2' (0x02),,
2.1343676875,'0' (0x00),,
2.134628125,'3' (0x03),,
2.1348885625,'1' (0x01),,
2.135149,'1' (0x01),,
2.1354094375,'255' (0xFF),,
2.135669875,'6' (0x06),,
2.1359303125,'4' (0x04),,
2.13619075,'0' (0x00),,
2.13645125,P (0x50),,
2.1367116875,'154' (0x9A),,

RX21
01 A4 80 00 03 09 02 03 03 01 01 FF 06 04 01 01 F0 01
2.153651125,'1' (0x01),,
2.1539376875,'164' (0xA4),,
2.1542244375,'128' (0x80),,
